  can0  000   [8]  22 06 00 00 00 00 1D 42
  can0  000   [8]  22 07 00 00 00 C0 1A 42
  can0  000   [8]  22 11 00 00 A8 22 59 42
  can0  000   [8]  22 12 00 00 EE 03 C1 41
  can0  000   [8]  22 13 00 00 C5 16 58 42
  can0  000   [8]  22 14 00 00 90 EE C2 41
  can0  000   [8]  22 15 00 00 EE 03 C1 41
  can0  000   [8]  22 16 00 00 92 5C 3E 3F
  can0  000   [8]  22 17 00 00 FB 38 59 42
  can0  000   [8]  22 18 00 00 BC 05 BA 3F
  can0  000   [8]  22 21 00 00 BC 05 BA 3F
  can0  000   [8]  22 2A 00 00 00 00 00 00
  can0  000   [8]  22 2B 00 00 01 10 00 00
  can0  000   [8]  22 06 00 00 00 C0 1D 42
  can0  000   [8]  22 07 00 00 00 40 1A 42
  can0  000   [8]  22 11 00 00 9A A8 59 42
  can0  000   [8]  22 12 00 00 12 13 C2 41
  can0  000   [8]  22 13 00 00 18 2D 58 42
  can0  000   [8]  22 14 00 00 1F 2F C3 41
  can0  000   [8]  22 15 00 00 12 13 C2 41
  can0  000   [8]  22 16 00 00 EE 5A F2 3E
  can0  000   [8]  22 17 00 00 F4 7B 59 42
  can0  000   [8]  22 18 00 00 4E 40 9F 3F
  can0  000   [8]  22 21 00 00 4E 40 9F 3F
  can0  000   [8]  22 2A 00 00 00 00 00 00
  can0  000   [8]  22 2B 00 00 01 10 00 00
  can0  000   [8]  22 06 00 00 00 80 1F 42
  can0  000   [8]  22 07 00 00 00 40 17 42
  can0  000   [8]  22 11 00 00 03 F6 58 42
  can0  000   [8]  22 12 00 00 BD D4 C2 41
  can0  000   [8]  22 13 00 00 64 86 58 42
  can0  000   [8]  22 14 00 00 53 A3 C3 41
  can0  000   [8]  22 15 00 00 BD D4 C2 41
  can0  000   [8]  22 16 00 00 0D 4F 8F 3F
  can0  000   [8]  22 17 00 00 9A A8 59 42
  can0  000   [8]  22 18 00 00 8A 8E 3C 3F
  can0  000   [8]  22 21 00 00 8A 8E 3C 3F
  can0  000   [8]  22 2A 00 00 00 00 00 00
  can0  000   [8]  22 2B 00 00 01 10 00 00
  can0  001   [8]  00 06 00 00 00 00 00 00
  can0  000   [8]  22 06 00 00 00 80 1D 42
  can0  000   [8]  0C 06 00 00 C0 6E D9 41
  can0  000   [8]  0D 06 00 00 E0 6F DD 41
  can0  000   [8]  0B 06 00 00 20 79 D1 41
  can0  000   [8]  0A 06 00 00 C0 DA D3 41
  can0  000   [8]  0E 06 00 00 10 D9 DF 41
  can0  000   [8]  10 06 00 00 40 A2 D8 41
  can0  000   [8]  11 06 00 00 E0 6F DD 41
  can0  000   [8]  0F 06 00 00 30 0B DF 41
  can0  001   [8]  00 06 00 00 00 00 00 00
  can0  000   [8]  22 06 00 00 00 80 1D 42
  can0  000   [8]  0B 06 00 00 20 79 D1 41
  can0  000   [8]  10 06 00 00 40 A2 D8 41
  can0  000   [8]  0A 06 00 00 C0 DA D3 41
  can0  000   [8]  0C 06 00 00 40 A2 D8 41
  can0  000   [8]  0D 06 00 00 E0 6F DD 41
  can0  000   [8]  0F 06 00 00 30 0B DF 41
  can0  000   [8]  11 06 00 00 E0 6F DD 41
  can0  000   [8]  0E 06 00 00 10 D9 DF 41
  can0  001   [8]  00 06 00 00 00 00 00 00
  can0  000   [8]  22 06 00 00 00 00 1D 42
  can0  000   [8]  10 06 00 00 40 A2 D8 41
  can0  000   [8]  0B 06 00 00 20 79 D1 41
  can0  000   [8]  0A 06 00 00 C0 DA D3 41
  can0  000   [8]  0E 06 00 00 10 D9 DF 41
  can0  000   [8]  0F 06 00 00 30 0B DF 41
  can0  000   [8]  11 06 00 00 60 3D DE 41
  can0  000   [8]  0D 06 00 00 E0 6F DD 41
  can0  000   [8]  0C 06 00 00 C0 6E D9 41
  can0  001   [8]  00 06 00 00 00 00 00 00
  can0  000   [8]  22 06 00 00 00 00 1D 42
  can0  000   [8]  0F 06 00 00 30 0B DF 41
  can0  000   [8]  10 06 00 00 40 A2 D8 41
  can0  000   [8]  0B 06 00 00 20 79 D1 41
  can0  000   [8]  0D 06 00 00 E0 6F DD 41
  can0  000   [8]  0C 06 00 00 40 A2 D8 41
  can0  000   [8]  0A 06 00 00 C0 DA D3 41
  can0  000   [8]  0E 06 00 00 10 D9 DF 41
  can0  000   [8]  11 06 00 00 E0 6F DD 41
  can0  001   [8]  00 06 00 00 00 00 00 00
  can0  000   [8]  22 06 00 00 00 C0 1C 42
  can0  000   [8]  0E 06 00 00 10 D9 DF 41
  can0  000   [8]  10 06 00 00 40 A2 D8 41
  can0  000   [8]  0B 06 00 00 20 79 D1 41
  can0  000   [8]  0C 06 00 00 C0 6E D9 41
  can0  000   [8]  0A 06 00 00 60 0F D3 41
  can0  000   [8]  0D 06 00 00 E0 6F DD 41
  can0  000   [8]  11 06 00 00 E0 6F DD 41
  can0  000   [8]  0F 06 00 00 30 0B DF 41
  can0  001   [8]  00 06 00 00 00 00 00 00
  can0  000   [8]  22 06 00 00 00 C0 1C 42
  can0  000   [8]  0C 06 00 00 40 A2 D8 41
  can0  000   [8]  0F 06 00 00 30 0B DF 41
  can0  000   [8]  0A 06 00 00 C0 DA D3 41
  can0  000   [8]  0B 06 00 00 20 79 D1 41
  can0  000   [8]  0D 06 00 00 E0 6F DD 41
  can0  000   [8]  0E 06 00 00 10 D9 DF 41
  can0  000   [8]  10 06 00 00 40 A2 D8 41
  can0  000   [8]  11 06 00 00 E0 6F DD 41
  can0  001   [8]  00 06 00 00 00 00 00 00
  can0  000   [8]  22 06 00 00 00 00 1E 42
  can0  000   [8]  11 06 00 00 E0 6F DD 41
  can0  000   [8]  0C 06 00 00 40 A2 D8 41
  can0  000   [8]  10 06 00 00 40 A2 D8 41
  can0  000   [8]  0A 06 00 00 C0 DA D3 41
  can0  000   [8]  0D 06 00 00 E0 6F DD 41
  can0  000   [8]  0F 06 00 00 30 0B DF 41
  can0  000   [8]  0B 06 00 00 20 79 D1 41
  can0  000   [8]  0E 06 00 00 10 D9 DF 41
  can0  001   [8]  00 06 00 00 00 00 00 00
  can0  000   [8]  22 06 00 00 00 00 1E 42
  can0  000   [8]  0C 06 00 00 40 A2 D8 41
  can0  000   [8]  0B 06 00 00 20 79 D1 41
  can0  000   [8]  11 06 00 00 E0 6F DD 41
  can0  000   [8]  0D 06 00 00 E0 6F DD 41
  can0  000   [8]  0A 06 00 00 60 0F D3 41
  can0  000   [8]  0F 06 00 00 30 0B DF 41
  can0  000   [8]  0E 06 00 00 10 D9 DF 41
  can0  000   [8]  10 06 00 00 40 A2 D8 41
  can0  001   [8]  00 06 00 00 00 00 00 00
  can0  000   [8]  22 06 00 00 00 00 1E 42
  can0  000   [8]  0B 06 00 00 20 79 D1 41
  can0  000   [8]  0C 06 00 00 40 A2 D8 41
  can0  000   [8]  10 06 00 00 40 A2 D8 41
  can0  000   [8]  0E 06 00 00 10 D9 DF 41
  can0  000   [8]  0F 06 00 00 30 0B DF 41
  can0  000   [8]  0A 06 00 00 60 0F D3 41
  can0  000   [8]  0D 06 00 00 E0 6F DD 41
  can0  000   [8]  11 06 00 00 E0 6F DD 41
  can0  001   [8]  00 06 00 00 00 00 00 00
  can0  000   [8]  22 06 00 00 00 00 1E 42
  can0  000   [8]  10 06 00 00 40 A2 D8 41
  can0  000   [8]  0A 06 00 00 C0 DA D3 41
  can0  000   [8]  0E 06 00 00 10 D9 DF 41
  can0  000   [8]  0F 06 00 00 30 0B DF 41
  can0  000   [8]  0B 06 00 00 20 79 D1 41
  can0  000   [8]  0C 06 00 00 C0 6E D9 41
  can0  000   [8]  0D 06 00 00 E0 6F DD 41
  can0  000   [8]  11 06 00 00 E0 6F DD 41
  can0  001   [8]  00 06 00 00 00 00 00 00
  can0  000   [8]  22 06 00 00 00 40 1E 42
  can0  000   [8]  0F 06 00 00 30 0B DF 41
  can0  000   [8]  11 06 00 00 E0 6F DD 41
  can0  000   [8]  0A 06 00 00 60 0F D3 41
  can0  000   [8]  0C 06 00 00 C0 6E D9 41
  can0  000   [8]  0B 06 00 00 20 79 D1 41
  can0  000   [8]  0D 06 00 00 E0 6F DD 41
  can0  000   [8]  0E 06 00 00 10 D9 DF 41
  can0  000   [8]  10 06 00 00 40 A2 D8 41
  can0  000   [8]  22 06 00 00 00 40 1E 42
  can0  000   [8]  22 07 00 00 00 00 1A 42
  can0  000   [8]  22 11 00 00 A8 22 59 42
  can0  000   [8]  22 12 00 00 FC 1F C2 41
  can0  000   [8]  22 13 00 00 6B 43 58 42
  can0  000   [8]  22 14 00 00 D5 C7 C2 41
  can0  000   [8]  22 15 00 00 FC 1F C2 41
  can0  000   [8]  22 16 00 00 19 73 5F 3F
  can0  000   [8]  22 17 00 00 F4 7B 59 42
  can0  000   [8]  22 18 00 00 AB CF B5 3F
  can0  000   [8]  22 21 00 00 AB CF B5 3F
  can0  000   [8]  22 2A 00 00 00 00 00 00
  can0  000   [8]  22 2B 00 00 01 10 00 00
  can0  001   [8]  00 06 00 00 00 00 00 00
  can0  000   [8]  22 06 00 00 00 40 1E 42
  can0  000   [8]  0F 06 00 00 30 0B DF 41
  can0  000   [8]  0B 06 00 00 20 44 D2 41
  can0  000   [8]  10 06 00 00 40 A2 D8 41
  can0  000   [8]  0C 06 00 00 40 A2 D8 41
  can0  000   [8]  0E 06 00 00 10 D9 DF 41
  can0  000   [8]  11 06 00 00 E0 6F DD 41
  can0  000   [8]  0A 06 00 00 C0 DA D3 41
  can0  000   [8]  0D 06 00 00 E0 6F DD 41
  can0  001   [8]  00 06 00 00 00 00 00 00
  can0  000   [8]  22 06 00 00 00 40 1E 42
  can0  000   [8]  0C 06 00 00 40 A2 D8 41
  can0  000   [8]  0F 06 00 00 30 0B DF 41
  can0  000   [8]  0B 06 00 00 20 79 D1 41
  can0  000   [8]  11 06 00 00 E0 6F DD 41
  can0  000   [8]  10 06 00 00 40 A2 D8 41
  can0  000   [8]  0D 06 00 00 E0 6F DD 41
  can0  000   [8]  0E 06 00 00 10 D9 DF 41
  can0  000   [8]  0A 06 00 00 C0 DA D3 41
  can0  001   [8]  00 06 00 00 00 00 00 00
  can0  000   [8]  22 06 00 00 00 C0 1D 42
  can0  000   [8]  0C 06 00 00 40 A2 D8 41
  can0  000   [8]  0F 06 00 00 30 0B DF 41
  can0  000   [8]  0B 06 00 00 20 79 D1 41
  can0  000   [8]  10 06 00 00 40 A2 D8 41
  can0  000   [8]  0D 06 00 00 E0 6F DD 41
  can0  000   [8]  0A 06 00 00 C0 DA D3 41
  can0  000   [8]  11 06 00 00 E0 6F DD 41
  can0  000   [8]  0E 06 00 00 10 D9 DF 41
  can0  001   [8]  00 06 00 00 00 00 00 00
  can0  000   [8]  22 06 00 00 00 C0 1D 42
  can0  000   [8]  0E 06 00 00 10 D9 DF 41
  can0  000   [8]  11 06 00 00 E0 6F DD 41
  can0  000   [8]  0A 06 00 00 C0 DA D3 41
  can0  000   [8]  0C 06 00 00 C0 6E D9 41
  can0  000   [8]  0D 06 00 00 E0 6F DD 41
  can0  000   [8]  0F 06 00 00 30 0B DF 41
  can0  000   [8]  10 06 00 00 40 A2 D8 41
  can0  000   [8]  0B 06 00 00 20 79 D1 41
  can0  001   [8]  00 06 00 00 00 00 00 00
  can0  000   [8]  22 06 00 00 00 40 1F 42
  can0  000   [8]  0D 06 00 00 80 A2 DC 41
  can0  000   [8]  0B 06 00 00 20 44 D2 41
  can0  000   [8]  0A 06 00 00 C0 DA D3 41
  can0  000   [8]  0E 06 00 00 10 D9 DF 41
  can0  000   [8]  0F 06 00 00 30 0B DF 41
  can0  000   [8]  10 06 00 00 40 A2 D8 41
  can0  000   [8]  11 06 00 00 60 3D DE 41
  can0  000   [8]  0C 06 00 00 40 A2 D8 41
  can0  000   [8]  22 06 00 00 00 40 21 42
  can0  000   [8]  22 07 00 00 00 80 1C 42
  can0  000   [8]  22 11 00 00 E6 01 5A 42
  can0  000   [8]  22 12 00 00 8A 60 C2 41
  can0  000   [8]  22 13 00 00 56 0C 59 42
  can0  000   [8]  22 14 00 00 F8 D6 C3 41
  can0  000   [8]  22 15 00 00 8A 60 C2 41
  can0  000   [8]  22 16 00 00 41 F1 43 3E
  can0  000   [8]  22 17 00 00 2A 9E 5A 42
  can0  000   [8]  22 18 00 00 A5 BD A1 3E
  can0  000   [8]  22 21 00 00 A5 BD A1 3E
  can0  000   [8]  22 2A 00 00 00 00 00 00
  can0  000   [8]  22 2B 00 00 01 10 00 00
  can0  000   [8]  22 06 00 00 00 40 21 42
  can0  000   [8]  22 07 00 00 00 80 1B 42
  can0  000   [8]  22 11 00 00 93 EB 59 42
  can0  000   [8]  22 12 00 00 A7 E1 C2 41
  can0  000   [8]  22 13 00 00 F4 7B 59 42
  can0  000   [8]  22 14 00 00 E1 E3 C3 41
  can0  000   [8]  22 15 00 00 A7 E1 C2 41
  can0  000   [8]  22 16 00 00 2F DD 84 3E
  can0  000   [8]  22 17 00 00 39 18 5A 42
  can0  000   [8]  22 18 00 00 FA 7E AA 3D
  can0  000   [8]  22 21 00 00 FA 7E AA 3D
  can0  000   [8]  22 2A 00 00 00 00 00 00
  can0  000   [8]  22 2B 00 00 01 10 00 00
  can0  000   [8]  22 06 00 00 00 00 21 42
  can0  000   [8]  22 07 00 00 00 40 1B 42
  can0  000   [8]  22 11 00 00 E6 01 5A 42
  can0  000   [8]  22 12 00 00 BD D4 C2 41
  can0  000   [8]  22 13 00 00 FB 38 59 42
  can0  000   [8]  22 14 00 00 CB F0 C3 41
  can0  000   [8]  22 15 00 00 BD D4 C2 41
  can0  000   [8]  22 16 00 00 91 7E DB 3E
  can0  000   [8]  22 17 00 00 84 71 5A 42
  can0  000   [8]  22 18 00 00 D4 09 68 3E
  can0  000   [8]  22 21 00 00 D4 09 68 3E
  can0  000   [8]  22 2A 00 00 00 00 00 00
  can0  000   [8]  22 2B 00 00 01 10 00 00
  can0  000   [8]  22 06 00 00 00 40 21 42
  can0  000   [8]  22 07 00 00 00 40 1A 42
  can0  000   [8]  22 11 00 00 ED BE 59 42
  can0  000   [8]  22 12 00 00 D5 C7 C2 41
  can0  000   [8]  22 13 00 00 F4 7B 59 42
  can0  000   [8]  22 14 00 00 0F CA C3 41
  can0  000   [8]  22 15 00 00 D5 C7 C2 41
  can0  000   [8]  22 16 00 00 1B 9E BE 3E
  can0  000   [8]  22 17 00 00 7D B4 5A 42
  can0  000   [8]  22 18 00 00 2C B2 7D 3E
  can0  000   [8]  22 21 00 00 2C B2 7D 3E
  can0  000   [8]  22 2A 00 00 00 00 00 00
  can0  000   [8]  22 2B 00 00 01 10 00 00
  can0  000   [8]  22 06 00 00 00 40 21 42
  can0  000   [8]  22 07 00 00 00 80 1C 42
  can0  000   [8]  22 11 00 00 93 EB 59 42
  can0  000   [8]  22 12 00 00 C4 62 C3 41
  can0  000   [8]  22 13 00 00 F4 7B 59 42
  can0  000   [8]  22 14 00 00 6A 96 C3 41
  can0  000   [8]  22 15 00 00 C4 62 C3 41
  can0  000   [8]  22 16 00 00 34 11 86 3E
  can0  000   [8]  22 17 00 00 2A 9E 5A 42
  can0  000   [8]  22 18 00 00 D6 C5 AD 3E
  can0  000   [8]  22 21 00 00 D6 C5 AD 3E
  can0  000   [8]  22 2A 00 00 00 00 00 00
  can0  000   [8]  22 2B 00 00 01 10 00 00
  can0  000   [8]  22 06 00 00 00 C0 20 42
  can0  000   [8]  22 07 00 00 00 00 1B 42
  can0  000   [8]  22 11 00 00 E6 01 5A 42
  can0  000   [8]  22 12 00 00 6A 96 C3 41
  can0  000   [8]  22 13 00 00 A8 22 59 42
  can0  000   [8]  22 14 00 00 97 7C C3 41
  can0  000   [8]  22 15 00 00 6A 96 C3 41
  can0  000   [8]  22 16 00 00 E8 D9 6C 3E
  can0  000   [8]  22 17 00 00 84 71 5A 42
  can0  000   [8]  22 18 00 00 41 60 05 3E
  can0  000   [8]  22 21 00 00 41 60 05 3E
  can0  000   [8]  22 2A 00 00 00 00 00 00
  can0  000   [8]  22 2B 00 00 01 10 00 00
  can0  000   [8]  22 06 00 00 00 C0 21 42
  can0  000   [8]  22 07 00 00 00 40 1C 42
  can0  000   [8]  22 11 00 00 39 18 5A 42
  can0  000   [8]  22 12 00 00 7A FB C2 41
  can0  000   [8]  22 13 00 00 F4 7B 59 42
  can0  000   [8]  22 14 00 00 F8 D6 C3 41
  can0  000   [8]  22 15 00 00 7A FB C2 41
  can0  000   [8]  22 16 00 00 D5 78 29 3E
  can0  000   [8]  22 17 00 00 84 71 5A 42
  can0  000   [8]  22 18 00 00 CB 10 27 3E
  can0  000   [8]  22 21 00 00 CB 10 27 3E
  can0  000   [8]  22 2A 00 00 00 00 00 00
  can0  000   [8]  22 2B 00 00 01 10 00 00
  can0  001   [8]  00 06 00 00 00 00 00 00
  can0  000   [8]  22 06 00 00 00 80 21 42
  can0  000   [8]  0B 06 00 00 88 59 18 42
  can0  000   [8]  0D 06 00 00 40 57 1E 42
  can0  000   [8]  11 06 00 00 C0 CE 1E 42
  can0  000   [8]  0A 06 00 00 48 B8 19 42
  can0  000   [8]  0C 06 00 00 18 F2 1C 42
  can0  000   [8]  0F 06 00 00 80 46 1F 42
  can0  000   [8]  10 06 00 00 E8 18 1B 42
  can0  000   [8]  0E 06 00 00 80 46 1F 42
  can0  000   [8]  22 06 00 00 00 00 22 42
  can0  000   [8]  22 07 00 00 00 80 1B 42
  can0  000   [8]  22 11 00 00 93 EB 59 42
  can0  000   [8]  22 12 00 00 BD D4 C2 41
  can0  000   [8]  22 13 00 00 F4 7B 59 42
  can0  000   [8]  22 14 00 00 26 BD C3 41
  can0  000   [8]  22 15 00 00 BD D4 C2 41
  can0  000   [8]  22 16 00 00 56 7D 8E 3E
  can0  000   [8]  22 17 00 00 D0 CA 5A 42
  can0  000   [8]  22 18 00 00 FC 18 33 3E
  can0  000   [8]  22 21 00 00 FC 18 33 3E
  can0  000   [8]  22 2A 00 00 00 00 00 00
  can0  000   [8]  22 2B 00 00 01 10 00 00
  can0  001   [8]  00 06 00 00 00 00 00 00
  can0  000   [8]  22 06 00 00 00 C0 20 42
  can0  000   [8]  0C 06 00 00 70 7B 1C 42
  can0  000   [8]  0A 06 00 00 48 B8 19 42
  can0  000   [8]  0F 06 00 00 80 46 1F 42
  can0  000   [8]  0E 06 00 00 78 BE 1F 42
  can0  000   [8]  0B 06 00 00 98 FC 16 42
  can0  000   [8]  10 06 00 00 E8 18 1B 42
  can0  000   [8]  11 06 00 00 40 57 1E 42
  can0  000   [8]  0D 06 00 00 40 57 1E 42
  can0  000   [8]  22 06 00 00 00 80 1F 42
  can0  000   [8]  22 07 00 00 00 40 1A 42
  can0  000   [8]  22 11 00 00 8C 2E 5A 42
  can0  000   [8]  22 12 00 00 36 22 C3 41
  can0  000   [8]  22 13 00 00 A8 22 59 42
  can0  000   [8]  22 14 00 00 0F CA C3 41
  can0  000   [8]  22 15 00 00 36 22 C3 41
  can0  000   [8]  22 16 00 00 4B C8 07 3E
  can0  000   [8]  22 17 00 00 40 D5 59 42
  can0  000   [8]  22 18 00 00 F2 41 6F 3E
  can0  000   [8]  22 21 00 00 F2 41 6F 3E
  can0  000   [8]  22 2A 00 00 00 00 00 00
  can0  000   [8]  22 2B 00 00 01 10 00 00
  can0  001   [8]  00 06 00 00 00 00 00 00
  can0  000   [8]  22 06 00 00 00 80 20 42
  can0  000   [8]  0D 06 00 00 40 57 1E 42
  can0  000   [8]  0E 06 00 00 80 46 1F 42
  can0  000   [8]  11 06 00 00 C0 CE 1E 42
  can0  000   [8]  0F 06 00 00 80 46 1F 42
  can0  000   [8]  0A 06 00 00 98 2D 1A 42
  can0  000   [8]  0B 06 00 00 88 59 18 42
  can0  000   [8]  0C 06 00 00 E0 8E 1B 42
  can0  000   [8]  10 06 00 00 E8 18 1B 42
  can0  000   [8]  22 06 00 00 00 80 20 42
  can0  000   [8]  22 07 00 00 00 80 1B 42
  can0  000   [8]  22 11 00 00 8C 2E 5A 42
  can0  000   [8]  22 12 00 00 36 22 C3 41
  can0  000   [8]  22 13 00 00 A1 65 59 42
  can0  000   [8]  22 14 00 00 3D B0 C3 41
  can0  000   [8]  22 15 00 00 36 22 C3 41
  can0  000   [8]  22 16 00 00 2C B2 7D 3E
  can0  000   [8]  22 17 00 00 8C 2E 5A 42
  can0  000   [8]  22 18 00 00 1B 0D 80 3E
  can0  000   [8]  22 21 00 00 1B 0D 80 3E
  can0  000   [8]  22 2A 00 00 00 00 00 00
  can0  000   [8]  22 2B 00 00 01 10 00 00
  can0  001   [8]  00 06 00 00 00 00 00 00
  can0  000   [8]  22 06 00 00 00 40 21 42
  can0  000   [8]  0A 06 00 00 48 B8 19 42
  can0  000   [8]  0C 06 00 00 E0 8E 1B 42
  can0  000   [8]  0B 06 00 00 88 59 18 42
  can0  000   [8]  0D 06 00 00 F8 DF 1D 42
  can0  000   [8]  0E 06 00 00 78 BE 1F 42
  can0  000   [8]  0F 06 00 00 80 46 1F 42
  can0  000   [8]  11 06 00 00 C0 CE 1E 42
  can0  000   [8]  10 06 00 00 E8 18 1B 42
  can0  000   [8]  22 06 00 00 00 00 22 42
  can0  000   [8]  22 07 00 00 00 80 1C 42
  can0  000   [8]  22 11 00 00 8C 2E 5A 42
  can0  000   [8]  22 12 00 00 D5 C7 C2 41
  can0  000   [8]  22 13 00 00 A1 65 59 42
  can0  000   [8]  22 14 00 00 53 A3 C3 41
  can0  000   [8]  22 15 00 00 D5 C7 C2 41
  can0  000   [8]  22 16 00 00 CC 5D AB 3E
  can0  000   [8]  22 17 00 00 DF 44 5A 42
  can0  000   [8]  22 18 00 00 D4 09 68 3E
  can0  000   [8]  22 21 00 00 D4 09 68 3E
  can0  000   [8]  22 2A 00 00 00 00 00 00
  can0  000   [8]  22 2B 00 00 01 10 00 00
  can0  000   [8]  22 06 00 00 00 C0 21 42
  can0  000   [8]  22 07 00 00 00 80 1D 42
  can0  000   [8]  22 11 00 00 40 D5 59 42
  can0  000   [8]  22 12 00 00 7A FB C2 41
  can0  000   [8]  22 13 00 00 9A A8 59 42
  can0  000   [8]  22 14 00 00 CB F0 C3 41
  can0  000   [8]  22 15 00 00 7A FB C2 41
  can0  000   [8]  22 16 00 00 B8 8D A6 3E
  can0  000   [8]  22 17 00 00 D0 CA 5A 42
  can0  000   [8]  22 18 00 00 39 45 87 3E
  can0  000   [8]  22 21 00 00 39 45 87 3E
  can0  000   [8]  22 2A 00 00 00 00 00 00
  can0  000   [8]  22 2B 00 00 01 10 00 00
  can0  000   [8]  22 06 00 00 00 00 21 42
  can0  000   [8]  22 07 00 00 00 C0 1B 42
  can0  000   [8]  22 11 00 00 E6 01 5A 42
  can0  000   [8]  22 12 00 00 63 08 C3 41
  can0  000   [8]  22 13 00 00 47 92 59 42
  can0  000   [8]  22 14 00 00 53 A3 C3 41
  can0  000   [8]  22 15 00 00 63 08 C3 41
  can0  000   [8]  22 16 00 00 D4 09 68 3E
  can0  000   [8]  22 17 00 00 D0 CA 5A 42
  can0  000   [8]  22 18 00 00 10 E9 37 3E
  can0  000   [8]  22 21 00 00 10 E9 37 3E
  can0  000   [8]  22 2A 00 00 00 00 00 00
  can0  000   [8]  22 2B 00 00 01 10 00 00
  can0  000   [8]  22 06 00 00 00 40 21 42
  can0  000   [8]  22 07 00 00 00 40 1B 42
  can0  000   [8]  22 11 00 00 32 5B 5A 42
  can0  000   [8]  22 12 00 00 4D 15 C3 41
  can0  000   [8]  22 13 00 00 4E 4F 59 42
  can0  000   [8]  22 14 00 00 6A 96 C3 41
  can0  000   [8]  22 15 00 00 4D 15 C3 41
  can0  000   [8]  22 16 00 00 20 B0 F2 3D
  can0  000   [8]  22 17 00 00 D7 87 5A 42
  can0  000   [8]  22 18 00 00 D4 09 68 3E
  can0  000   [8]  22 21 00 00 D4 09 68 3E
  can0  000   [8]  22 2A 00 00 00 00 00 00
  can0  000   [8]  22 2B 00 00 01 10 00 00
  can0  000   [8]  22 06 00 00 00 C0 20 42
  can0  000   [8]  22 07 00 00 00 00 1C 42
  can0  000   [8]  22 11 00 00 40 D5 59 42
  can0  000   [8]  22 12 00 00 7A FB C2 41
  can0  000   [8]  22 13 00 00 4E 4F 59 42
  can0  000   [8]  22 14 00 00 A7 E1 C2 41
  can0  000   [8]  22 15 00 00 7A FB C2 41
  can0  000   [8]  22 16 00 00 A0 89 A0 3E
  can0  000   [8]  22 17 00 00 DF 44 5A 42
  can0  000   [8]  22 18 00 00 2C B2 7D 3E
  can0  000   [8]  22 21 00 00 2C B2 7D 3E
  can0  000   [8]  22 2A 00 00 00 00 00 00
  can0  000   [8]  22 2B 00 00 01 10 00 00
  can0  000   [8]  22 06 00 00 00 C0 21 42
  can0  000   [8]  22 07 00 00 00 C0 1C 42
  can0  000   [8]  22 11 00 00 40 D5 59 42
  can0  000   [8]  22 12 00 00 63 08 C3 41
  can0  000   [8]  22 13 00 00 9A A8 59 42
  can0  000   [8]  22 14 00 00 26 BD C3 41
  can0  000   [8]  22 15 00 00 63 08 C3 41
  can0  000   [8]  22 16 00 00 19 51 3A 3E
  can0  000   [8]  22 17 00 00 7D B4 5A 42
  can0  000   [8]  22 18 00 00 B7 40 22 3E
  can0  000   [8]  22 21 00 00 B7 40 22 3E
  can0  000   [8]  22 2A 00 00 00 00 00 00
  can0  000   [8]  22 2B 00 00 01 10 00 00
  can0  000   [8]  22 06 00 00 00 C0 20 42
  can0  000   [8]  22 07 00 00 00 40 1D 42
  can0  000   [8]  22 11 00 00 DF 44 5A 42
  can0  000   [8]  22 12 00 00 BD D4 C2 41
  can0  000   [8]  22 13 00 00 4E 4F 59 42
  can0  000   [8]  22 14 00 00 CB F0 C3 41
  can0  000   [8]  22 15 00 00 BD D4 C2 41
  can0  000   [8]  22 16 00 00 7D 1D 98 3E
  can0  000   [8]  22 17 00 00 2A 9E 5A 42
  can0  000   [8]  22 18 00 00 10 E9 37 3E
  can0  000   [8]  22 21 00 00 10 E9 37 3E
  can0  000   [8]  22 2A 00 00 00 00 00 00
  can0  000   [8]  22 2B 00 00 01 10 00 00
  can0  000   [8]  22 06 00 00 00 40 22 42
  can0  000   [8]  22 07 00 00 00 00 1D 42
  can0  000   [8]  22 11 00 00 8C 2E 5A 42
  can0  000   [8]  22 12 00 00 EC BA C2 41
  can0  000   [8]  22 13 00 00 F4 7B 59 42
  can0  000   [8]  22 14 00 00 6A 96 C3 41
  can0  000   [8]  22 15 00 00 EC BA C2 41
  can0  000   [8]  22 16 00 00 90 A0 18 3E
  can0  000   [8]  22 17 00 00 32 5B 5A 42
  can0  000   [8]  22 18 00 00 AD D8 1F 3E
  can0  000   [8]  22 21 00 00 AD D8 1F 3E
  can0  000   [8]  22 2A 00 00 00 00 00 00
  can0  000   [8]  22 2B 00 00 01 10 00 00
  can0  000   [8]  22 06 00 00 00 00 22 42
  can0  000   [8]  22 07 00 00 00 C0 1B 42
  can0  000   [8]  22 11 00 00 E6 01 5A 42
  can0  000   [8]  22 12 00 00 4D 15 C3 41
  can0  000   [8]  22 13 00 00 FB 38 59 42
  can0  000   [8]  22 14 00 00 53 A3 C3 41
  can0  000   [8]  22 15 00 00 4D 15 C3 41
  can0  000   [8]  22 16 00 00 06 12 74 3E
  can0  000   [8]  22 17 00 00 84 71 5A 42
  can0  000   [8]  22 18 00 00 2D 90 00 3E
  can0  000   [8]  22 21 00 00 2D 90 00 3E
  can0  000   [8]  22 2A 00 00 00 00 00 00
  can0  000   [8]  22 2B 00 00 01 10 00 00
  can0  000   [8]  22 06 00 00 00 80 21 42
  can0  000   [8]  22 07 00 00 00 40 1C 42
  can0  000   [8]  22 11 00 00 DF 44 5A 42
  can0  000   [8]  22 12 00 00 4D 15 C3 41
  can0  000   [8]  22 13 00 00 A8 22 59 42
  can0  000   [8]  22 14 00 00 0F CA C3 41
  can0  000   [8]  22 15 00 00 4D 15 C3 41
  can0  000   [8]  22 16 00 00 DE E0 2B 3E
  can0  000   [8]  22 17 00 00 32 5B 5A 42
  can0  000   [8]  22 18 00 00 E8 D9 6C 3E
  can0  000   [8]  22 21 00 00 E8 D9 6C 3E
  can0  000   [8]  22 2A 00 00 00 00 00 00
  can0  000   [8]  22 2B 00 00 01 10 00 00
  can0  000   [8]  22 06 00 00 00 C0 20 42
  can0  000   [8]  22 07 00 00 00 40 1C 42
  can0  000   [8]  22 11 00 00 E6 01 5A 42
  can0  000   [8]  22 12 00 00 A7 E1 C2 41
  can0  000   [8]  22 13 00 00 9A A8 59 42
  can0  000   [8]  22 14 00 00 F8 D6 C3 41
  can0  000   [8]  22 15 00 00 A7 E1 C2 41
  can0  000   [8]  22 16 00 00 E6 AE A5 3D
  can0  000   [8]  22 17 00 00 7D B4 5A 42
  can0  000   [8]  22 18 00 00 E8 48 2E 3E
  can0  000   [8]  22 21 00 00 E8 48 2E 3E
  can0  000   [8]  22 2A 00 00 00 00 00 00
  can0  000   [8]  22 2B 00 00 01 10 00 00
  can0  000   [8]  22 06 00 00 00 40 21 42
  can0  000   [8]  22 07 00 00 00 C0 1C 42
  can0  000   [8]  22 11 00 00 93 EB 59 42
  can0  000   [8]  22 12 00 00 BD D4 C2 41
  can0  000   [8]  22 13 00 00 4E 4F 59 42
  can0  000   [8]  22 14 00 00 53 A3 C3 41
  can0  000   [8]  22 15 00 00 BD D4 C2 41
  can0  000   [8]  22 16 00 00 10 7A 76 3E
  can0  000   [8]  22 17 00 00 2A 9E 5A 42
  can0  000   [8]  22 18 00 00 23 B9 3C 3E
  can0  000   [8]  22 21 00 00 23 B9 3C 3E
  can0  000   [8]  22 2A 00 00 00 00 00 00
  can0  000   [8]  22 2B 00 00 01 10 00 00
  can0  000   [8]  22 06 00 00 00 40 22 42
  can0  000   [8]  22 07 00 00 00 40 1C 42
  can0  000   [8]  22 11 00 00 39 18 5A 42
  can0  000   [8]  22 12 00 00 63 08 C3 41
  can0  000   [8]  22 13 00 00 FB 38 59 42
  can0  000   [8]  22 14 00 00 3D B0 C3 41
  can0  000   [8]  22 15 00 00 63 08 C3 41
  can0  000   [8]  22 16 00 00 4C 15 8C 3E
  can0  000   [8]  22 17 00 00 84 71 5A 42
  can0  000   [8]  22 18 00 00 C0 39 63 3E
  can0  000   [8]  22 21 00 00 C0 39 63 3E
  can0  000   [8]  22 2A 00 00 00 00 00 00
  can0  000   [8]  22 2B 00 00 01 10 00 00
  can0  000   [8]  22 06 00 00 00 40 22 42
  can0  000   [8]  22 07 00 00 00 C0 1C 42
  can0  000   [8]  22 11 00 00 E6 01 5A 42
  can0  000   [8]  22 12 00 00 90 EE C2 41
  can0  000   [8]  22 13 00 00 A8 22 59 42
  can0  000   [8]  22 14 00 00 53 A3 C3 41
  can0  000   [8]  22 15 00 00 90 EE C2 41
  can0  000   [8]  22 16 00 00 2D 21 3F 3E
  can0  000   [8]  22 17 00 00 7D B4 5A 42
  can0  000   [8]  22 18 00 00 C7 29 AA 3E
  can0  000   [8]  22 21 00 00 C7 29 AA 3E
  can0  000   [8]  22 2A 00 00 00 00 00 00
  can0  000   [8]  22 2B 00 00 01 10 00 00
  can0  000   [8]  22 06 00 00 00 00 22 42
  can0  000   [8]  22 07 00 00 00 C0 1D 42
  can0  000   [8]  22 11 00 00 40 D5 59 42
  can0  000   [8]  22 12 00 00 BD D4 C2 41
  can0  000   [8]  22 13 00 00 47 92 59 42
  can0  000   [8]  22 14 00 00 DB 55 C3 41
  can0  000   [8]  22 15 00 00 BD D4 C2 41
  can0  000   [8]  22 16 00 00 25 75 82 3E
  can0  000   [8]  22 17 00 00 DF 44 5A 42
  can0  000   [8]  22 18 00 00 72 68 11 3E
  can0  000   [8]  22 21 00 00 72 68 11 3E
  can0  000   [8]  22 2A 00 00 00 00 00 00
  can0  000   [8]  22 2B 00 00 01 10 00 00
  can0  000   [8]  22 06 00 00 00 00 22 42
  can0  000   [8]  22 07 00 00 00 00 1C 42
  can0  000   [8]  22 11 00 00 8C 2E 5A 42
  can0  000   [8]  22 12 00 00 15 58 C4 41
  can0  000   [8]  22 13 00 00 A1 65 59 42
  can0  000   [8]  22 14 00 00 6A 96 C3 41
  can0  000   [8]  22 15 00 00 15 58 C4 41
  can0  000   [8]  22 16 00 00 42 AD 89 3E
  can0  000   [8]  22 17 00 00 84 71 5A 42
  can0  000   [8]  22 18 00 00 A5 BD A1 3E
  can0  000   [8]  22 21 00 00 A5 BD A1 3E
  can0  000   [8]  22 2A 00 00 00 00 00 00
  can0  000   [8]  22 2B 00 00 01 10 00 00
  can0  000   [8]  22 06 00 00 00 40 22 42
  can0  000   [8]  22 07 00 00 00 40 1D 42
  can0  000   [8]  22 11 00 00 8C 2E 5A 42
  can0  000   [8]  22 12 00 00 BD D4 C2 41
  can0  000   [8]  22 13 00 00 F4 7B 59 42
  can0  000   [8]  22 14 00 00 97 7C C3 41
  can0  000   [8]  22 15 00 00 BD D4 C2 41
  can0  000   [8]  22 16 00 00 10 E9 37 3E
  can0  000   [8]  22 17 00 00 7D B4 5A 42
  can0  000   [8]  22 18 00 00 4B C8 07 3E
  can0  000   [8]  22 21 00 00 4B C8 07 3E
  can0  000   [8]  22 2A 00 00 00 00 00 00
  can0  000   [8]  22 2B 00 00 01 10 00 00
  can0  000   [8]  22 06 00 00 00 C0 20 42
  can0  000   [8]  22 07 00 00 00 C0 1C 42
  can0  000   [8]  22 11 00 00 39 18 5A 42
  can0  000   [8]  22 12 00 00 EC BA C2 41
  can0  000   [8]  22 13 00 00 A1 65 59 42
  can0  000   [8]  22 14 00 00 53 A3 C3 41
  can0  000   [8]  22 15 00 00 EC BA C2 41
  can0  000   [8]  22 16 00 00 55 30 0A 3E
  can0  000   [8]  22 17 00 00 84 71 5A 42
  can0  000   [8]  22 18 00 00 74 B5 95 3E
  can0  000   [8]  22 21 00 00 74 B5 95 3E
  can0  000   [8]  22 2A 00 00 00 00 00 00
  can0  000   [8]  22 2B 00 00 01 10 00 00
  can0  000   [8]  22 06 00 00 00 C0 21 42
  can0  000   [8]  22 07 00 00 00 40 1C 42
  can0  000   [8]  22 11 00 00 E6 01 5A 42
  can0  000   [8]  22 12 00 00 A7 E1 C2 41
  can0  000   [8]  22 13 00 00 A1 65 59 42
  can0  000   [8]  22 14 00 00 26 BD C3 41
  can0  000   [8]  22 15 00 00 A7 E1 C2 41
  can0  000   [8]  22 16 00 00 06 12 74 3E
  can0  000   [8]  22 17 00 00 84 71 5A 42
  can0  000   [8]  22 18 00 00 2D 21 3F 3E
  can0  000   [8]  22 21 00 00 2D 21 3F 3E
  can0  000   [8]  22 2A 00 00 00 00 00 00
  can0  000   [8]  22 2B 00 00 01 10 00 00
  can0  000   [8]  22 06 00 00 00 00 21 42
  can0  000   [8]  22 07 00 00 00 00 1C 42
  can0  000   [8]  22 11 00 00 93 EB 59 42
  can0  000   [8]  22 12 00 00 90 EE C2 41
  can0  000   [8]  22 13 00 00 A1 65 59 42
  can0  000   [8]  22 14 00 00 0F CA C3 41
  can0  000   [8]  22 15 00 00 90 EE C2 41
  can0  000   [8]  22 16 00 00 7C D0 13 3E
  can0  000   [8]  22 17 00 00 8C 2E 5A 42
  can0  000   [8]  22 18 00 00 06 81 35 3E
  can0  000   [8]  22 21 00 00 06 81 35 3E
  can0  000   [8]  22 2A 00 00 00 00 00 00
  can0  000   [8]  22 2B 00 00 01 10 00 00
  can0  000   [8]  22 06 00 00 00 40 22 42
  can0  000   [8]  22 07 00 00 00 00 1D 42
  can0  000   [8]  22 11 00 00 39 18 5A 42
  can0  000   [8]  22 12 00 00 63 08 C3 41
  can0  000   [8]  22 13 00 00 4E 4F 59 42
  can0  000   [8]  22 14 00 00 3D B0 C3 41
  can0  000   [8]  22 15 00 00 63 08 C3 41
  can0  000   [8]  22 16 00 00 FC A9 71 3E
  can0  000   [8]  22 17 00 00 D7 87 5A 42
  can0  000   [8]  22 18 00 00 7C 61 52 3E
  can0  000   [8]  22 21 00 00 7C 61 52 3E
  can0  000   [8]  22 2A 00 00 00 00 00 00
  can0  000   [8]  22 2B 00 00 01 10 00 00
  can0  000   [8]  22 06 00 00 00 40 21 42
  can0  000   [8]  22 07 00 00 00 00 1D 42
  can0  000   [8]  22 11 00 00 39 18 5A 42
  can0  000   [8]  22 12 00 00 7A FB C2 41
  can0  000   [8]  22 13 00 00 40 D5 59 42
  can0  000   [8]  22 14 00 00 53 A3 C3 41
  can0  000   [8]  22 15 00 00 7A FB C2 41
  can0  000   [8]  22 16 00 00 41 F1 43 3E
  can0  000   [8]  22 17 00 00 D7 87 5A 42
  can0  000   [8]  22 18 00 00 48 50 FC 3D
  can0  000   [8]  22 21 00 00 48 50 FC 3D
  can0  000   [8]  22 2A 00 00 00 00 00 00
  can0  000   [8]  22 2B 00 00 01 10 00 00
  can0  000   [8]  22 06 00 00 00 00 22 42
  can0  000   [8]  22 07 00 00 00 00 1C 42
  can0  000   [8]  22 11 00 00 E6 01 5A 42
  can0  000   [8]  22 12 00 00 A7 E1 C2 41
  can0  000   [8]  22 13 00 00 A1 65 59 42
  can0  000   [8]  22 14 00 00 AE 6F C3 41
  can0  000   [8]  22 15 00 00 A7 E1 C2 41
  can0  000   [8]  22 16 00 00 F3 FD B4 3E
  can0  000   [8]  22 17 00 00 2A 9E 5A 42
  can0  000   [8]  22 18 00 00 3E 79 88 3E
  can0  000   [8]  22 21 00 00 3E 79 88 3E
  can0  000   [8]  22 2A 00 00 00 00 00 00
  can0  000   [8]  22 2B 00 00 01 10 00 00
  can0  000   [8]  22 06 00 00 00 80 23 42
  can0  000   [8]  22 07 00 00 00 00 1D 42
  can0  000   [8]  22 11 00 00 8C 2E 5A 42
  can0  000   [8]  22 12 00 00 BD D4 C2 41
  can0  000   [8]  22 13 00 00 F4 7B 59 42
  can0  000   [8]  22 14 00 00 F8 D6 C3 41
  can0  000   [8]  22 15 00 00 BD D4 C2 41
  can0  000   [8]  22 16 00 00 56 7D 8E 3E
  can0  000   [8]  22 17 00 00 D0 CA 5A 42
  can0  000   [8]  22 18 00 00 B6 D1 60 3E
  can0  000   [8]  22 21 00 00 B6 D1 60 3E
  can0  000   [8]  22 2A 00 00 00 00 00 00
  can0  000   [8]  22 2B 00 00 01 10 00 00
  can0  000   [8]  22 06 00 00 00 80 22 42
  can0  000   [8]  22 07 00 00 00 40 1D 42
  can0  000   [8]  22 11 00 00 93 EB 59 42
  can0  000   [8]  22 12 00 00 90 EE C2 41
  can0  000   [8]  22 13 00 00 F4 7B 59 42
  can0  000   [8]  22 14 00 00 80 89 C3 41
  can0  000   [8]  22 15 00 00 90 EE C2 41
  can0  000   [8]  22 16 00 00 51 49 8D 3E
  can0  000   [8]  22 17 00 00 84 71 5A 42
  can0  000   [8]  22 18 00 00 19 51 3A 3E
  can0  000   [8]  22 21 00 00 19 51 3A 3E
  can0  000   [8]  22 2A 00 00 00 00 00 00
  can0  000   [8]  22 2B 00 00 01 10 00 00
  can0  000   [8]  22 06 00 00 00 40 23 42
  can0  000   [8]  22 07 00 00 00 80 1E 42
  can0  000   [8]  22 11 00 00 39 18 5A 42
  can0  000   [8]  22 12 00 00 36 22 C3 41
  can0  000   [8]  22 13 00 00 A1 65 59 42
  can0  000   [8]  22 14 00 00 F8 D6 C3 41
  can0  000   [8]  22 15 00 00 36 22 C3 41
  can0  000   [8]  22 16 00 00 74 B5 95 3E
  can0  000   [8]  22 17 00 00 2A 9E 5A 42
  can0  000   [8]  22 18 00 00 CA A1 65 3E
  can0  000   [8]  22 21 00 00 CA A1 65 3E
  can0  000   [8]  22 2A 00 00 00 00 00 00
  can0  000   [8]  22 2B 00 00 01 10 00 00
  can0  000   [8]  22 06 00 00 00 C0 22 42
  can0  000   [8]  22 07 00 00 00 C0 1D 42
  can0  000   [8]  22 11 00 00 40 D5 59 42
  can0  000   [8]  22 12 00 00 02 AE C2 41
  can0  000   [8]  22 13 00 00 9A A8 59 42
  can0  000   [8]  22 14 00 00 0F CA C3 41
  can0  000   [8]  22 15 00 00 02 AE C2 41
  can0  000   [8]  22 16 00 00 B7 40 22 3E
  can0  000   [8]  22 17 00 00 D7 87 5A 42
  can0  000   [8]  22 18 00 00 F3 FD B4 3E
  can0  000   [8]  22 21 00 00 F3 FD B4 3E
  can0  000   [8]  22 2A 00 00 00 00 00 00
  can0  000   [8]  22 2B 00 00 01 10 00 00
  can0  000   [8]  22 06 00 00 00 80 22 42
  can0  000   [8]  22 07 00 00 00 80 1D 42
  can0  000   [8]  22 11 00 00 DF 44 5A 42
  can0  000   [8]  22 12 00 00 90 EE C2 41
  can0  000   [8]  22 13 00 00 4E 4F 59 42
  can0  000   [8]  22 14 00 00 CB F0 C3 41
  can0  000   [8]  22 15 00 00 90 EE C2 41
  can0  000   [8]  22 16 00 00 10 7A 76 3E
  can0  000   [8]  22 17 00 00 39 18 5A 42
  can0  000   [8]  22 18 00 00 06 81 35 3E
  can0  000   [8]  22 21 00 00 06 81 35 3E
  can0  000   [8]  22 2A 00 00 00 00 00 00
  can0  000   [8]  22 2B 00 00 01 10 00 00
  can0  000   [8]  22 06 00 00 00 40 22 42
  can0  000   [8]  22 07 00 00 00 00 1E 42
  can0  000   [8]  22 11 00 00 DF 44 5A 42
  can0  000   [8]  22 12 00 00 BD D4 C2 41
  can0  000   [8]  22 13 00 00 9A A8 59 42
  can0  000   [8]  22 14 00 00 71 24 C4 41
  can0  000   [8]  22 15 00 00 BD D4 C2 41
  can0  000   [8]  22 16 00 00 48 50 FC 3D
  can0  000   [8]  22 17 00 00 7D B4 5A 42
  can0  000   [8]  22 18 00 00 22 4A 7B 3E
  can0  000   [8]  22 21 00 00 22 4A 7B 3E
  can0  000   [8]  22 2A 00 00 00 00 00 00
  can0  000   [8]  22 2B 00 00 01 10 00 00
  can0  000   [8]  22 06 00 00 00 00 23 42
  can0  000   [8]  22 07 00 00 00 00 1D 42
  can0  000   [8]  22 11 00 00 DF 44 5A 42
  can0  000   [8]  22 12 00 00 90 EE C2 41
  can0  000   [8]  22 13 00 00 F4 7B 59 42
  can0  000   [8]  22 14 00 00 0F CA C3 41
  can0  000   [8]  22 15 00 00 90 EE C2 41
  can0  000   [8]  22 16 00 00 5C 8F C2 3D
  can0  000   [8]  22 17 00 00 2A 9E 5A 42
  can0  000   [8]  22 18 00 00 F2 B0 30 3E
  can0  000   [8]  22 21 00 00 F2 B0 30 3E
  can0  000   [8]  22 2A 00 00 00 00 00 00
  can0  000   [8]  22 2B 00 00 01 10 00 00
  can0  000   [8]  22 06 00 00 00 00 22 42
  can0  000   [8]  22 07 00 00 00 40 1D 42
  can0  000   [8]  22 11 00 00 39 18 5A 42
  can0  000   [8]  22 12 00 00 90 EE C2 41
  can0  000   [8]  22 13 00 00 47 92 59 42
  can0  000   [8]  22 14 00 00 97 7C C3 41
  can0  000   [8]  22 15 00 00 90 EE C2 41
  can0  000   [8]  22 16 00 00 2D 21 3F 3E
  can0  000   [8]  22 17 00 00 2A 9E 5A 42
  can0  000   [8]  22 18 00 00 5B B1 8F 3E
  can0  000   [8]  22 21 00 00 5B B1 8F 3E
  can0  000   [8]  22 2A 00 00 00 00 00 00
  can0  000   [8]  22 2B 00 00 01 10 00 00
  can0  000   [8]  22 06 00 00 00 80 22 42
  can0  000   [8]  22 07 00 00 00 C0 1C 42
  can0  000   [8]  22 11 00 00 39 18 5A 42
  can0  000   [8]  22 12 00 00 EC BA C2 41
  can0  000   [8]  22 13 00 00 4E 4F 59 42
  can0  000   [8]  22 14 00 00 E1 E3 C3 41
  can0  000   [8]  22 15 00 00 EC BA C2 41
  can0  000   [8]  22 16 00 00 2D 90 00 3E
  can0  000   [8]  22 17 00 00 2A 9E 5A 42
  can0  000   [8]  22 18 00 00 10 E9 37 3E
  can0  000   [8]  22 21 00 00 10 E9 37 3E
  can0  000   [8]  22 2A 00 00 00 00 00 00
  can0  000   [8]  22 2B 00 00 01 10 00 00
  can0  000   [8]  22 06 00 00 00 80 23 42
  can0  000   [8]  22 07 00 00 00 80 1C 42
  can0  000   [8]  22 11 00 00 DF 44 5A 42
  can0  000   [8]  22 12 00 00 63 08 C3 41
  can0  000   [8]  22 13 00 00 A1 65 59 42
  can0  000   [8]  22 14 00 00 6A 96 C3 41
  can0  000   [8]  22 15 00 00 63 08 C3 41
  can0  000   [8]  22 16 00 00 E8 D9 6C 3E
  can0  000   [8]  22 17 00 00 2A 9E 5A 42
  can0  000   [8]  22 18 00 00 37 89 41 3E
  can0  000   [8]  22 21 00 00 37 89 41 3E
  can0  000   [8]  22 2A 00 00 00 00 00 00
  can0  000   [8]  22 2B 00 00 01 10 00 00
  can0  000   [8]  22 06 00 00 00 00 23 42
  can0  000   [8]  22 07 00 00 00 C0 1D 42
  can0  000   [8]  22 11 00 00 8C 2E 5A 42
  can0  000   [8]  22 12 00 00 EC BA C2 41
  can0  000   [8]  22 13 00 00 F4 7B 59 42
  can0  000   [8]  22 14 00 00 97 7C C3 41
  can0  000   [8]  22 15 00 00 EC BA C2 41
  can0  000   [8]  22 16 00 00 2D 90 00 3E
  can0  000   [8]  22 17 00 00 7D B4 5A 42
  can0  000   [8]  22 18 00 00 68 00 0F 3E
  can0  000   [8]  22 21 00 00 68 00 0F 3E
  can0  000   [8]  22 2A 00 00 00 00 00 00
  can0  000   [8]  22 2B 00 00 01 10 00 00
  can0  000   [8]  22 06 00 00 00 C0 23 42
  can0  000   [8]  22 07 00 00 00 00 1A 42
  can0  000   [8]  22 11 00 00 DF 44 5A 42
  can0  000   [8]  22 12 00 00 A7 E1 C2 41
  can0  000   [8]  22 13 00 00 FB 38 59 42
  can0  000   [8]  22 14 00 00 F8 D6 C3 41
  can0  000   [8]  22 15 00 00 A7 E1 C2 41
  can0  000   [8]  22 16 00 00 4A 59 46 3E
  can0  000   [8]  22 17 00 00 8C 2E 5A 42
  can0  000   [8]  22 18 00 00 D2 DE A0 3D
  can0  000   [8]  22 21 00 00 D2 DE A0 3D
  can0  000   [8]  22 2A 00 00 00 00 00 00
  can0  000   [8]  22 2B 00 00 01 10 00 00
  can0  000   [8]  22 06 00 00 00 80 23 42
  can0  000   [8]  22 07 00 00 00 80 1C 42
  can0  000   [8]  22 11 00 00 DF 44 5A 42
  can0  000   [8]  22 12 00 00 D5 C7 C2 41
  can0  000   [8]  22 13 00 00 FB 38 59 42
  can0  000   [8]  22 14 00 00 CB F0 C3 41
  can0  000   [8]  22 15 00 00 D5 C7 C2 41
  can0  000   [8]  22 16 00 00 EA 95 B2 3E
  can0  000   [8]  22 17 00 00 D0 CA 5A 42
  can0  000   [8]  22 18 00 00 72 68 11 3E
  can0  000   [8]  22 21 00 00 72 68 11 3E
  can0  000   [8]  22 2A 00 00 00 00 00 00
  can0  000   [8]  22 2B 00 00 01 10 00 00
  can0  000   [8]  22 06 00 00 00 40 22 42
  can0  000   [8]  22 07 00 00 00 C0 1D 42
  can0  000   [8]  22 11 00 00 40 D5 59 42
  can0  000   [8]  22 12 00 00 7A FB C2 41
  can0  000   [8]  22 13 00 00 A1 65 59 42
  can0  000   [8]  22 14 00 00 53 A3 C3 41
  can0  000   [8]  22 15 00 00 7A FB C2 41
  can0  000   [8]  22 16 00 00 56 7D 8E 3E
  can0  000   [8]  22 17 00 00 D7 87 5A 42
  can0  000   [8]  22 18 00 00 AA CF D5 3D
  can0  000   [8]  22 21 00 00 AA CF D5 3D
  can0  000   [8]  22 2A 00 00 00 00 00 00
  can0  000   [8]  22 2B 00 00 01 10 00 00
  can0  000   [8]  22 06 00 00 00 C0 23 42
  can0  000   [8]  22 07 00 00 00 40 1E 42
  can0  000   [8]  22 11 00 00 39 18 5A 42
  can0  000   [8]  22 12 00 00 4D 15 C3 41
  can0  000   [8]  22 13 00 00 56 0C 59 42
  can0  000   [8]  22 14 00 00 E1 E3 C3 41
  can0  000   [8]  22 15 00 00 4D 15 C3 41
  can0  000   [8]  22 16 00 00 96 FF D0 3D
  can0  000   [8]  22 17 00 00 8C 2E 5A 42
  can0  000   [8]  22 18 00 00 4B C8 07 3E
  can0  000   [8]  22 21 00 00 4B C8 07 3E
  can0  000   [8]  22 2A 00 00 00 00 00 00
  can0  000   [8]  22 2B 00 00 01 10 00 00
  can0  000   [8]  22 06 00 00 00 40 22 42
  can0  000   [8]  22 07 00 00 00 00 1C 42
  can0  000   [8]  22 11 00 00 8C 2E 5A 42
  can0  000   [8]  22 12 00 00 90 EE C2 41
  can0  000   [8]  22 13 00 00 A8 22 59 42
  can0  000   [8]  22 14 00 00 26 BD C3 41
  can0  000   [8]  22 15 00 00 90 EE C2 41
  can0  000   [8]  22 16 00 00 E8 D9 6C 3E
  can0  000   [8]  22 17 00 00 D7 87 5A 42
  can0  000   [8]  22 18 00 00 86 C9 54 3E
  can0  000   [8]  22 21 00 00 86 C9 54 3E
  can0  000   [8]  22 2A 00 00 00 00 00 00
  can0  000   [8]  22 2B 00 00 01 10 00 00
  can0  000   [8]  22 06 00 00 00 C0 23 42
  can0  000   [8]  22 07 00 00 00 40 1E 42
  can0  000   [8]  22 11 00 00 E6 01 5A 42
  can0  000   [8]  22 12 00 00 19 A1 C2 41
  can0  000   [8]  22 13 00 00 4E 4F 59 42
  can0  000   [8]  22 14 00 00 0F CA C3 41
  can0  000   [8]  22 15 00 00 19 A1 C2 41
  can0  000   [8]  22 16 00 00 19 51 3A 3E
  can0  000   [8]  22 17 00 00 7D B4 5A 42
  can0  000   [8]  22 18 00 00 5F 98 0C 3E
  can0  000   [8]  22 21 00 00 5F 98 0C 3E
  can0  000   [8]  22 2A 00 00 00 00 00 00
  can0  000   [8]  22 2B 00 00 01 10 00 00
  can0  000   [8]  22 06 00 00 00 00 24 42
  can0  000   [8]  22 07 00 00 00 80 1E 42
  can0  000   [8]  22 11 00 00 84 71 5A 42
  can0  000   [8]  22 12 00 00 A7 E1 C2 41
  can0  000   [8]  22 13 00 00 A8 22 59 42
  can0  000   [8]  22 14 00 00 C4 62 C3 41
  can0  000   [8]  22 15 00 00 A7 E1 C2 41
  can0  000   [8]  22 16 00 00 AA F1 A2 3E
  can0  000   [8]  22 17 00 00 D7 87 5A 42
  can0  000   [8]  22 18 00 00 0C E0 ED 3D
  can0  000   [8]  22 21 00 00 0C E0 ED 3D
  can0  000   [8]  22 2A 00 00 00 00 00 00
  can0  000   [8]  22 2B 00 00 01 10 00 00
  can0  000   [8]  22 06 00 00 00 00 24 42
  can0  000   [8]  22 07 00 00 00 40 1C 42
  can0  000   [8]  22 11 00 00 40 D5 59 42
  can0  000   [8]  22 12 00 00 BD D4 C2 41
  can0  000   [8]  22 13 00 00 9A A8 59 42
  can0  000   [8]  22 14 00 00 2C 4B C4 41
  can0  000   [8]  22 15 00 00 BD D4 C2 41
  can0  000   [8]  22 16 00 00 54 C1 48 3E
  can0  000   [8]  22 17 00 00 2A 9E 5A 42
  can0  000   [8]  22 18 00 00 2D 90 00 3E
  can0  000   [8]  22 21 00 00 2D 90 00 3E
  can0  000   [8]  22 2A 00 00 00 00 00 00
  can0  000   [8]  22 2B 00 00 01 10 00 00
  can0  000   [8]  22 06 00 00 00 00 24 42
  can0  000   [8]  22 07 00 00 00 00 1D 42
  can0  000   [8]  22 11 00 00 DF 44 5A 42
  can0  000   [8]  22 12 00 00 90 EE C2 41
  can0  000   [8]  22 13 00 00 F4 7B 59 42
  can0  000   [8]  22 14 00 00 97 7C C3 41
  can0  000   [8]  22 15 00 00 90 EE C2 41
  can0  000   [8]  22 16 00 00 C1 A8 24 3E
  can0  000   [8]  22 17 00 00 2A 9E 5A 42
  can0  000   [8]  22 18 00 00 90 A0 18 3E
  can0  000   [8]  22 21 00 00 90 A0 18 3E
  can0  000   [8]  22 2A 00 00 00 00 00 00
  can0  000   [8]  22 2B 00 00 01 10 00 00
  can0  000   [8]  22 06 00 00 00 C0 23 42
  can0  000   [8]  22 07 00 00 00 80 1C 42
  can0  000   [8]  22 11 00 00 DF 44 5A 42
  can0  000   [8]  22 12 00 00 A7 E1 C2 41
  can0  000   [8]  22 13 00 00 56 0C 59 42
  can0  000   [8]  22 14 00 00 F8 D6 C3 41
  can0  000   [8]  22 15 00 00 A7 E1 C2 41
  can0  000   [8]  22 16 00 00 F2 B0 30 3E
  can0  000   [8]  22 17 00 00 8C 2E 5A 42
  can0  000   [8]  22 18 00 00 CB 10 27 3E
  can0  000   [8]  22 21 00 00 CB 10 27 3E
  can0  000   [8]  22 2A 00 00 00 00 00 00
  can0  000   [8]  22 2B 00 00 01 10 00 00
  can0  000   [8]  22 06 00 00 00 00 24 42
  can0  000   [8]  22 07 00 00 00 C0 1D 42
  can0  000   [8]  22 11 00 00 32 5B 5A 42
  can0  000   [8]  22 12 00 00 A7 E1 C2 41
  can0  000   [8]  22 13 00 00 A1 65 59 42
  can0  000   [8]  22 14 00 00 0F CA C3 41
  can0  000   [8]  22 15 00 00 A7 E1 C2 41
  can0  000   [8]  22 16 00 00 4A 59 46 3E
  can0  000   [8]  22 17 00 00 D7 87 5A 42
  can0  000   [8]  22 18 00 00 E8 D9 6C 3E
  can0  000   [8]  22 21 00 00 E8 D9 6C 3E
  can0  000   [8]  22 2A 00 00 00 00 00 00
  can0  000   [8]  22 2B 00 00 01 10 00 00
  can0  000   [8]  22 06 00 00 00 C0 24 42
  can0  000   [8]  22 07 00 00 00 00 20 42
  can0  000   [8]  22 11 00 00 E6 01 5A 42
  can0  000   [8]  22 12 00 00 BD D4 C2 41
  can0  000   [8]  22 13 00 00 9A A8 59 42
  can0  000   [8]  22 14 00 00 53 A3 C3 41
  can0  000   [8]  22 15 00 00 BD D4 C2 41
  can0  000   [8]  22 16 00 00 AA F1 A2 3E
  can0  000   [8]  22 17 00 00 D0 CA 5A 42
  can0  000   [8]  22 18 00 00 7C D0 13 3E
  can0  000   [8]  22 21 00 00 7C D0 13 3E
  can0  000   [8]  22 2A 00 00 00 00 00 00
  can0  000   [8]  22 2B 00 00 01 10 00 00
  can0  000   [8]  22 06 00 00 00 C0 23 42
  can0  000   [8]  22 07 00 00 00 80 1E 42
  can0  000   [8]  22 11 00 00 93 EB 59 42
  can0  000   [8]  22 12 00 00 D5 C7 C2 41
  can0  000   [8]  22 13 00 00 03 F6 58 42
  can0  000   [8]  22 14 00 00 26 BD C3 41
  can0  000   [8]  22 15 00 00 D5 C7 C2 41
  can0  000   [8]  22 16 00 00 2D 21 3F 3E
  can0  000   [8]  22 17 00 00 84 71 5A 42
  can0  000   [8]  22 18 00 00 19 51 3A 3E
  can0  000   [8]  22 21 00 00 19 51 3A 3E
  can0  000   [8]  22 2A 00 00 00 00 00 00
  can0  000   [8]  22 2B 00 00 01 10 00 00
  can0  000   [8]  22 06 00 00 00 C0 23 42
  can0  000   [8]  22 07 00 00 00 00 1E 42
  can0  000   [8]  22 11 00 00 8C 2E 5A 42
  can0  000   [8]  22 12 00 00 1F 2F C3 41
  can0  000   [8]  22 13 00 00 03 F6 58 42
  can0  000   [8]  22 14 00 00 0F CA C3 41
  can0  000   [8]  22 15 00 00 1F 2F C3 41
  can0  000   [8]  22 16 00 00 7C D0 13 3E
  can0  000   [8]  22 17 00 00 D7 87 5A 42
  can0  000   [8]  22 18 00 00 AF 25 A4 3E
  can0  000   [8]  22 21 00 00 AF 25 A4 3E
  can0  000   [8]  22 2A 00 00 00 00 00 00
  can0  000   [8]  22 2B 00 00 01 10 00 00
  can0  000   [8]  22 06 00 00 00 80 23 42
  can0  000   [8]  22 07 00 00 00 00 1D 42
  can0  000   [8]  22 11 00 00 39 18 5A 42
  can0  000   [8]  22 12 00 00 63 08 C3 41
  can0  000   [8]  22 13 00 00 47 92 59 42
  can0  000   [8]  22 14 00 00 53 A3 C3 41
  can0  000   [8]  22 15 00 00 63 08 C3 41
  can0  000   [8]  22 16 00 00 54 C1 48 3E
  can0  000   [8]  22 17 00 00 7D B4 5A 42
  can0  000   [8]  22 18 00 00 A2 01 5C 3E
  can0  000   [8]  22 21 00 00 A2 01 5C 3E
  can0  000   [8]  22 2A 00 00 00 00 00 00
  can0  000   [8]  22 2B 00 00 01 10 00 00
  can0  000   [8]  22 06 00 00 00 00 24 42
  can0  000   [8]  22 07 00 00 00 C0 1D 42
  can0  000   [8]  22 11 00 00 8C 2E 5A 42
  can0  000   [8]  22 12 00 00 A7 E1 C2 41
  can0  000   [8]  22 13 00 00 A1 65 59 42
  can0  000   [8]  22 14 00 00 F8 D6 C3 41
  can0  000   [8]  22 15 00 00 A7 E1 C2 41
  can0  000   [8]  22 16 00 00 86 38 16 3E
  can0  000   [8]  22 17 00 00 D7 87 5A 42
  can0  000   [8]  22 18 00 00 E0 2D B0 3E
  can0  000   [8]  22 21 00 00 E0 2D B0 3E
  can0  000   [8]  22 2A 00 00 00 00 00 00
  can0  000   [8]  22 2B 00 00 01 10 00 00
  can0  000   [8]  22 06 00 00 00 40 23 42
  can0  000   [8]  22 07 00 00 00 00 1D 42
  can0  000   [8]  22 11 00 00 32 5B 5A 42
  can0  000   [8]  22 12 00 00 73 6D C2 41
  can0  000   [8]  22 13 00 00 F4 7B 59 42
  can0  000   [8]  22 14 00 00 80 89 C3 41
  can0  000   [8]  22 15 00 00 73 6D C2 41
  can0  000   [8]  22 16 00 00 F2 B0 30 3E
  can0  000   [8]  22 17 00 00 2A 9E 5A 42
  can0  000   [8]  22 18 00 00 CB 10 27 3E
  can0  000   [8]  22 21 00 00 CB 10 27 3E
  can0  000   [8]  22 2A 00 00 00 00 00 00
  can0  000   [8]  22 2B 00 00 01 10 00 00
  can0  000   [8]  22 06 00 00 00 C0 23 42
  can0  000   [8]  22 07 00 00 00 40 1D 42
  can0  000   [8]  22 11 00 00 93 EB 59 42
  can0  000   [8]  22 12 00 00 36 22 C3 41
  can0  000   [8]  22 13 00 00 FB 38 59 42
  can0  000   [8]  22 14 00 00 F8 D6 C3 41
  can0  000   [8]  22 15 00 00 36 22 C3 41
  can0  000   [8]  22 16 00 00 65 19 92 3E
  can0  000   [8]  22 17 00 00 32 5B 5A 42
  can0  000   [8]  22 18 00 00 86 38 16 3E
  can0  000   [8]  22 21 00 00 86 38 16 3E
  can0  000   [8]  22 2A 00 00 00 00 00 00
  can0  000   [8]  22 2B 00 00 01 10 00 00
  can0  000   [8]  22 06 00 00 00 80 23 42
  can0  000   [8]  22 07 00 00 00 40 1C 42
  can0  000   [8]  22 11 00 00 32 5B 5A 42
  can0  000   [8]  22 12 00 00 02 AE C2 41
  can0  000   [8]  22 13 00 00 A1 65 59 42
  can0  000   [8]  22 14 00 00 AE 6F C3 41
  can0  000   [8]  22 15 00 00 02 AE C2 41
  can0  000   [8]  22 16 00 00 7C D0 13 3E
  can0  000   [8]  22 17 00 00 D7 87 5A 42
  can0  000   [8]  22 18 00 00 5F 98 0C 3E
  can0  000   [8]  22 21 00 00 5F 98 0C 3E
  can0  000   [8]  22 2A 00 00 00 00 00 00
  can0  000   [8]  22 2B 00 00 01 10 00 00
  can0  000   [8]  22 06 00 00 00 00 24 42
  can0  000   [8]  22 07 00 00 00 C0 1F 42
  can0  000   [8]  22 11 00 00 47 92 59 42
  can0  000   [8]  22 12 00 00 A1 53 C2 41
  can0  000   [8]  22 13 00 00 9A A8 59 42
  can0  000   [8]  22 14 00 00 3D B0 C3 41
  can0  000   [8]  22 15 00 00 A1 53 C2 41
  can0  000   [8]  22 16 00 00 E4 3F E4 3D
  can0  000   [8]  22 17 00 00 2A 9E 5A 42
  can0  000   [8]  22 18 00 00 2D 90 00 3E
  can0  000   [8]  22 21 00 00 2D 90 00 3E
  can0  000   [8]  22 2A 00 00 00 00 00 00
  can0  000   [8]  22 2B 00 00 01 10 00 00
  can0  000   [8]  22 06 00 00 00 40 24 42
  can0  000   [8]  22 07 00 00 00 40 20 42
  can0  000   [8]  22 11 00 00 39 18 5A 42
  can0  000   [8]  22 12 00 00 90 EE C2 41
  can0  000   [8]  22 13 00 00 9A A8 59 42
  can0  000   [8]  22 14 00 00 3D B0 C3 41
  can0  000   [8]  22 15 00 00 90 EE C2 41
  can0  000   [8]  22 16 00 00 1B 0D 80 3E
  can0  000   [8]  22 17 00 00 7D B4 5A 42
  can0  000   [8]  22 18 00 00 74 B5 95 3E
  can0  000   [8]  22 21 00 00 74 B5 95 3E
  can0  000   [8]  22 2A 00 00 00 00 00 00
  can0  000   [8]  22 2B 00 00 01 10 00 00
  can0  000   [8]  22 06 00 00 00 40 24 42
  can0  000   [8]  22 07 00 00 00 00 1E 42
  can0  000   [8]  22 11 00 00 39 18 5A 42
  can0  000   [8]  22 12 00 00 7A FB C2 41
  can0  000   [8]  22 13 00 00 47 92 59 42
  can0  000   [8]  22 14 00 00 97 7C C3 41
  can0  000   [8]  22 15 00 00 7A FB C2 41
  can0  000   [8]  22 16 00 00 CA A1 65 3E
  can0  000   [8]  22 17 00 00 84 71 5A 42
  can0  000   [8]  22 18 00 00 C1 A8 24 3E
  can0  000   [8]  22 21 00 00 C1 A8 24 3E
  can0  000   [8]  22 2A 00 00 00 00 00 00
  can0  000   [8]  22 2B 00 00 01 10 00 00
  can0  000   [8]  22 06 00 00 00 C0 24 42
  can0  000   [8]  22 07 00 00 00 80 1D 42
  can0  000   [8]  22 11 00 00 32 5B 5A 42
  can0  000   [8]  22 12 00 00 C4 62 C3 41
  can0  000   [8]  22 13 00 00 A1 65 59 42
  can0  000   [8]  22 14 00 00 53 A3 C3 41
  can0  000   [8]  22 15 00 00 C4 62 C3 41
  can0  000   [8]  22 16 00 00 5F 98 0C 3E
  can0  000   [8]  22 17 00 00 D7 87 5A 42
  can0  000   [8]  22 18 00 00 D5 78 29 3E
  can0  000   [8]  22 21 00 00 D5 78 29 3E
  can0  000   [8]  22 2A 00 00 00 00 00 00
  can0  000   [8]  22 2B 00 00 01 10 00 00
  can0  000   [8]  22 06 00 00 00 C0 24 42
  can0  000   [8]  22 07 00 00 00 C0 1D 42
  can0  000   [8]  22 11 00 00 39 18 5A 42
  can0  000   [8]  22 12 00 00 09 3C C3 41
  can0  000   [8]  22 13 00 00 A8 22 59 42
  can0  000   [8]  22 14 00 00 0F CA C3 41
  can0  000   [8]  22 15 00 00 09 3C C3 41
  can0  000   [8]  22 16 00 00 D5 78 29 3E
  can0  000   [8]  22 17 00 00 8C 2E 5A 42
  can0  000   [8]  22 18 00 00 2D 90 00 3E
  can0  000   [8]  22 21 00 00 2D 90 00 3E
  can0  000   [8]  22 2A 00 00 00 00 00 00
  can0  000   [8]  22 2B 00 00 01 10 00 00
  can0  000   [8]  22 06 00 00 00 40 24 42
  can0  000   [8]  22 07 00 00 00 80 1C 42
  can0  000   [8]  22 11 00 00 40 D5 59 42
  can0  000   [8]  22 12 00 00 A7 E1 C2 41
  can0  000   [8]  22 13 00 00 F4 7B 59 42
  can0  000   [8]  22 14 00 00 F8 D6 C3 41
  can0  000   [8]  22 15 00 00 A7 E1 C2 41
  can0  000   [8]  22 16 00 00 5F 98 0C 3E
  can0  000   [8]  22 17 00 00 2A 9E 5A 42
  can0  000   [8]  22 18 00 00 82 51 99 3E
  can0  000   [8]  22 21 00 00 82 51 99 3E
  can0  000   [8]  22 2A 00 00 00 00 00 00
  can0  000   [8]  22 2B 00 00 01 10 00 00
  can0  000   [8]  22 06 00 00 00 C0 24 42
  can0  000   [8]  22 07 00 00 00 C0 1F 42
  can0  000   [8]  22 11 00 00 8C 2E 5A 42
  can0  000   [8]  22 12 00 00 EC BA C2 41
  can0  000   [8]  22 13 00 00 FB 38 59 42
  can0  000   [8]  22 14 00 00 09 3C C3 41
  can0  000   [8]  22 15 00 00 EC BA C2 41
  can0  000   [8]  22 16 00 00 91 ED 9C 3E
  can0  000   [8]  22 17 00 00 DF 44 5A 42
  can0  000   [8]  22 18 00 00 D6 C5 AD 3E
  can0  000   [8]  22 21 00 00 D6 C5 AD 3E
  can0  000   [8]  22 2A 00 00 00 00 00 00
  can0  000   [8]  22 2B 00 00 01 10 00 00
  can0  000   [8]  22 06 00 00 00 40 25 42
  can0  000   [8]  22 07 00 00 00 C0 1D 42
  can0  000   [8]  22 11 00 00 39 18 5A 42
  can0  000   [8]  22 12 00 00 A7 E1 C2 41
  can0  000   [8]  22 13 00 00 4E 4F 59 42
  can0  000   [8]  22 14 00 00 6A 96 C3 41
  can0  000   [8]  22 15 00 00 A7 E1 C2 41
  can0  000   [8]  22 16 00 00 AF 25 A4 3E
  can0  000   [8]  22 17 00 00 D0 CA 5A 42
  can0  000   [8]  22 18 00 00 D4 09 68 3E
  can0  000   [8]  22 21 00 00 D4 09 68 3E
  can0  000   [8]  22 2A 00 00 00 00 00 00
  can0  000   [8]  22 2B 00 00 01 10 00 00
  can0  000   [8]  22 06 00 00 00 C0 23 42
  can0  000   [8]  22 07 00 00 00 40 1E 42
  can0  000   [8]  22 11 00 00 8C 2E 5A 42
  can0  000   [8]  22 12 00 00 BD D4 C2 41
  can0  000   [8]  22 13 00 00 A1 65 59 42
  can0  000   [8]  22 14 00 00 26 BD C3 41
  can0  000   [8]  22 15 00 00 BD D4 C2 41
  can0  000   [8]  22 16 00 00 20 41 81 3E
  can0  000   [8]  22 17 00 00 D7 87 5A 42
  can0  000   [8]  22 18 00 00 FC 18 33 3E
  can0  000   [8]  22 21 00 00 FC 18 33 3E
  can0  000   [8]  22 2A 00 00 00 00 00 00
  can0  000   [8]  22 2B 00 00 01 10 00 00
  can0  000   [8]  22 06 00 00 00 80 24 42
  can0  000   [8]  22 07 00 00 00 00 1F 42
  can0  000   [8]  22 11 00 00 8C 2E 5A 42
  can0  000   [8]  22 12 00 00 63 08 C3 41
  can0  000   [8]  22 13 00 00 A1 65 59 42
  can0  000   [8]  22 14 00 00 0F CA C3 41
  can0  000   [8]  22 15 00 00 63 08 C3 41
  can0  000   [8]  22 16 00 00 06 81 35 3E
  can0  000   [8]  22 17 00 00 2A 9E 5A 42
  can0  000   [8]  22 18 00 00 54 C1 48 3E
  can0  000   [8]  22 21 00 00 54 C1 48 3E
  can0  000   [8]  22 2A 00 00 00 00 00 00
  can0  000   [8]  22 2B 00 00 01 10 00 00
  can0  000   [8]  22 06 00 00 00 80 24 42
  can0  000   [8]  22 07 00 00 00 80 1E 42
  can0  000   [8]  22 11 00 00 39 18 5A 42
  can0  000   [8]  22 12 00 00 90 EE C2 41
  can0  000   [8]  22 13 00 00 A1 65 59 42
  can0  000   [8]  22 14 00 00 97 7C C3 41
  can0  000   [8]  22 15 00 00 90 EE C2 41
  can0  000   [8]  22 16 00 00 C7 29 AA 3E
  can0  000   [8]  22 17 00 00 2A 9E 5A 42
  can0  000   [8]  22 18 00 00 6B BC 74 3D
  can0  000   [8]  22 21 00 00 6B BC 74 3D
  can0  000   [8]  22 2A 00 00 00 00 00 00
  can0  000   [8]  22 2B 00 00 01 10 00 00
  can0  000   [8]  22 06 00 00 00 C0 24 42
  can0  000   [8]  22 07 00 00 00 40 1E 42
  can0  000   [8]  22 11 00 00 E6 01 5A 42
  can0  000   [8]  22 12 00 00 4D 15 C3 41
  can0  000   [8]  22 13 00 00 A1 65 59 42
  can0  000   [8]  22 14 00 00 26 BD C3 41
  can0  000   [8]  22 15 00 00 4D 15 C3 41
  can0  000   [8]  22 16 00 00 56 7D 8E 3E
  can0  000   [8]  22 17 00 00 84 71 5A 42
  can0  000   [8]  22 18 00 00 9A 99 59 3E
  can0  000   [8]  22 21 00 00 9A 99 59 3E
  can0  000   [8]  22 2A 00 00 00 00 00 00
  can0  000   [8]  22 2B 00 00 01 10 00 00
  can0  000   [8]  22 06 00 00 00 00 25 42
  can0  000   [8]  22 07 00 00 00 00 1F 42
  can0  000   [8]  22 11 00 00 39 18 5A 42
  can0  000   [8]  22 12 00 00 A7 E1 C2 41
  can0  000   [8]  22 13 00 00 FB 38 59 42
  can0  000   [8]  22 14 00 00 53 A3 C3 41
  can0  000   [8]  22 15 00 00 A7 E1 C2 41
  can0  000   [8]  22 16 00 00 3E 79 88 3E
  can0  000   [8]  22 17 00 00 84 71 5A 42
  can0  000   [8]  22 18 00 00 06 12 74 3E
  can0  000   [8]  22 21 00 00 06 12 74 3E
  can0  000   [8]  22 2A 00 00 00 00 00 00
  can0  000   [8]  22 2B 00 00 01 10 00 00
  can0  000   [8]  22 06 00 00 00 C0 24 42
  can0  000   [8]  22 07 00 00 00 C0 1F 42
  can0  000   [8]  22 11 00 00 32 5B 5A 42
  can0  000   [8]  22 12 00 00 36 22 C3 41
  can0  000   [8]  22 13 00 00 47 92 59 42
  can0  000   [8]  22 14 00 00 F8 D6 C3 41
  can0  000   [8]  22 15 00 00 36 22 C3 41
  can0  000   [8]  22 16 00 00 96 21 9E 3E
  can0  000   [8]  22 17 00 00 23 E1 5A 42
  can0  000   [8]  22 18 00 00 2D 90 00 3E
  can0  000   [8]  22 21 00 00 2D 90 00 3E
  can0  000   [8]  22 2A 00 00 00 00 00 00
  can0  000   [8]  22 2B 00 00 01 10 00 00
  can0  000   [8]  22 06 00 00 00 00 25 42
  can0  000   [8]  22 07 00 00 00 40 1F 42
  can0  000   [8]  22 11 00 00 E6 01 5A 42
  can0  000   [8]  22 12 00 00 A7 E1 C2 41
  can0  000   [8]  22 13 00 00 4E 4F 59 42
  can0  000   [8]  22 14 00 00 6A 96 C3 41
  can0  000   [8]  22 15 00 00 A7 E1 C2 41
  can0  000   [8]  22 16 00 00 23 B9 3C 3E
  can0  000   [8]  22 17 00 00 D7 87 5A 42
  can0  000   [8]  22 18 00 00 23 B9 3C 3E
  can0  000   [8]  22 21 00 00 23 B9 3C 3E
  can0  000   [8]  22 2A 00 00 00 00 00 00
  can0  000   [8]  22 2B 00 00 01 10 00 00
  can0  000   [8]  22 06 00 00 00 80 24 42
  can0  000   [8]  22 07 00 00 00 40 1F 42
  can0  000   [8]  22 11 00 00 93 EB 59 42
  can0  000   [8]  22 12 00 00 E5 2C C2 41
  can0  000   [8]  22 13 00 00 F4 7B 59 42
  can0  000   [8]  22 14 00 00 DB 55 C3 41
  can0  000   [8]  22 15 00 00 E5 2C C2 41
  can0  000   [8]  22 16 00 00 9A 99 59 3E
  can0  000   [8]  22 17 00 00 D7 87 5A 42
  can0  000   [8]  22 18 00 00 82 2F CC 3D
  can0  000   [8]  22 21 00 00 82 2F CC 3D
  can0  000   [8]  22 2A 00 00 00 00 00 00
  can0  000   [8]  22 2B 00 00 01 10 00 00
  can0  000   [8]  22 06 00 00 00 80 24 42
  can0  000   [8]  22 07 00 00 00 80 1D 42
  can0  000   [8]  22 11 00 00 DF 44 5A 42
  can0  000   [8]  22 12 00 00 A7 E1 C2 41
  can0  000   [8]  22 13 00 00 FB 38 59 42
  can0  000   [8]  22 14 00 00 53 A3 C3 41
  can0  000   [8]  22 15 00 00 A7 E1 C2 41
  can0  000   [8]  22 16 00 00 37 F8 02 3E
  can0  000   [8]  22 17 00 00 2A 9E 5A 42
  can0  000   [8]  22 18 00 00 0C 4F AF 3D
  can0  000   [8]  22 21 00 00 0C 4F AF 3D
  can0  000   [8]  22 2A 00 00 00 00 00 00
  can0  000   [8]  22 2B 00 00 01 10 00 00
  can0  000   [8]  22 06 00 00 00 40 26 42
  can0  000   [8]  22 07 00 00 00 40 1E 42
  can0  000   [8]  22 11 00 00 39 18 5A 42
  can0  000   [8]  22 12 00 00 2F 94 C2 41
  can0  000   [8]  22 13 00 00 F4 7B 59 42
  can0  000   [8]  22 14 00 00 53 A3 C3 41
  can0  000   [8]  22 15 00 00 2F 94 C2 41
  can0  000   [8]  22 16 00 00 E8 D9 6C 3E
  can0  000   [8]  22 17 00 00 2A 9E 5A 42
  can0  000   [8]  22 18 00 00 10 E9 37 3E
  can0  000   [8]  22 21 00 00 10 E9 37 3E
  can0  000   [8]  22 2A 00 00 00 00 00 00
  can0  000   [8]  22 2B 00 00 01 10 00 00
  can0  000   [8]  22 06 00 00 00 00 25 42
  can0  000   [8]  22 07 00 00 00 80 1F 42
  can0  000   [8]  22 11 00 00 32 5B 5A 42
  can0  000   [8]  22 12 00 00 A7 E1 C2 41
  can0  000   [8]  22 13 00 00 A1 65 59 42
  can0  000   [8]  22 14 00 00 53 A3 C3 41
  can0  000   [8]  22 15 00 00 A7 E1 C2 41
  can0  000   [8]  22 16 00 00 AC 69 5E 3E
  can0  000   [8]  22 17 00 00 2A 9E 5A 42
  can0  000   [8]  22 18 00 00 37 89 41 3E
  can0  000   [8]  22 21 00 00 37 89 41 3E
  can0  000   [8]  22 2A 00 00 00 00 00 00
  can0  000   [8]  22 2B 00 00 01 10 00 00
  can0  000   [8]  22 06 00 00 00 00 24 42
  can0  000   [8]  22 07 00 00 00 C0 1E 42
  can0  000   [8]  22 11 00 00 E6 01 5A 42
  can0  000   [8]  22 12 00 00 A7 E1 C2 41
  can0  000   [8]  22 13 00 00 47 92 59 42
  can0  000   [8]  22 14 00 00 49 CC C4 41
  can0  000   [8]  22 15 00 00 A7 E1 C2 41
  can0  000   [8]  22 16 00 00 10 7A 76 3E
  can0  000   [8]  22 17 00 00 D7 87 5A 42
  can0  000   [8]  22 18 00 00 9A 08 1B 3E
  can0  000   [8]  22 21 00 00 9A 08 1B 3E
  can0  000   [8]  22 2A 00 00 00 00 00 00
  can0  000   [8]  22 2B 00 00 01 10 00 00
  can0  000   [8]  22 06 00 00 00 00 25 42
  can0  000   [8]  22 07 00 00 00 C0 1D 42
  can0  000   [8]  22 11 00 00 93 EB 59 42
  can0  000   [8]  22 12 00 00 A7 E1 C2 41
  can0  000   [8]  22 13 00 00 4E 4F 59 42
  can0  000   [8]  22 14 00 00 B4 FD C3 41
  can0  000   [8]  22 15 00 00 A7 E1 C2 41
  can0  000   [8]  22 16 00 00 48 50 FC 3D
  can0  000   [8]  22 17 00 00 D7 87 5A 42
  can0  000   [8]  22 18 00 00 2C B2 7D 3E
  can0  000   [8]  22 21 00 00 2C B2 7D 3E
  can0  000   [8]  22 2A 00 00 00 00 00 00
  can0  000   [8]  22 2B 00 00 01 10 00 00
  can0  000   [8]  22 06 00 00 00 C0 25 42
  can0  000   [8]  22 07 00 00 00 00 1F 42
  can0  000   [8]  22 11 00 00 DF 44 5A 42
  can0  000   [8]  22 12 00 00 02 AE C2 41
  can0  000   [8]  22 13 00 00 03 F6 58 42
  can0  000   [8]  22 14 00 00 97 7C C3 41
  can0  000   [8]  22 15 00 00 02 AE C2 41
  can0  000   [8]  22 16 00 00 4B C8 07 3E
  can0  000   [8]  22 17 00 00 D7 87 5A 42
  can0  000   [8]  22 18 00 00 18 3F C6 BB
  can0  000   [8]  22 21 00 00 18 3F C6 BB
  can0  000   [8]  22 2A 00 00 00 00 00 00
  can0  000   [8]  22 2B 00 00 01 10 00 00
  can0  000   [8]  22 06 00 00 00 40 24 42
  can0  000   [8]  22 07 00 00 00 40 1E 42
  can0  000   [8]  22 11 00 00 32 5B 5A 42
  can0  000   [8]  22 12 00 00 02 AE C2 41
  can0  000   [8]  22 13 00 00 A1 65 59 42
  can0  000   [8]  22 14 00 00 26 BD C3 41
  can0  000   [8]  22 15 00 00 02 AE C2 41
  can0  000   [8]  22 16 00 00 E8 D9 6C 3E
  can0  000   [8]  22 17 00 00 D7 87 5A 42
  can0  000   [8]  22 18 00 00 2F DD 84 3E
  can0  000   [8]  22 21 00 00 2F DD 84 3E
  can0  000   [8]  22 2A 00 00 00 00 00 00
  can0  000   [8]  22 2B 00 00 01 10 00 00
  can0  000   [8]  22 06 00 00 00 C0 24 42
  can0  000   [8]  22 07 00 00 00 00 1F 42
  can0  000   [8]  22 11 00 00 DF 44 5A 42
  can0  000   [8]  22 12 00 00 BD D4 C2 41
  can0  000   [8]  22 13 00 00 56 0C 59 42
  can0  000   [8]  22 14 00 00 3D B0 C3 41
  can0  000   [8]  22 15 00 00 BD D4 C2 41
  can0  000   [8]  22 16 00 00 39 45 87 3E
  can0  000   [8]  22 17 00 00 8C 2E 5A 42
  can0  000   [8]  22 18 00 00 54 C1 48 3E
  can0  000   [8]  22 21 00 00 54 C1 48 3E
  can0  000   [8]  22 2A 00 00 00 00 00 00
  can0  000   [8]  22 2B 00 00 01 10 00 00
  can0  000   [8]  22 06 00 00 00 40 24 42
  can0  000   [8]  22 07 00 00 00 C0 1E 42
  can0  000   [8]  22 11 00 00 DF 44 5A 42
  can0  000   [8]  22 12 00 00 4D 15 C3 41
  can0  000   [8]  22 13 00 00 A1 65 59 42
  can0  000   [8]  22 14 00 00 3D B0 C3 41
  can0  000   [8]  22 15 00 00 4D 15 C3 41
  can0  000   [8]  22 16 00 00 10 E9 37 3E
  can0  000   [8]  22 17 00 00 7D B4 5A 42
  can0  000   [8]  22 18 00 00 4B C8 07 3E
  can0  000   [8]  22 21 00 00 4B C8 07 3E
  can0  000   [8]  22 2A 00 00 00 00 00 00
  can0  000   [8]  22 2B 00 00 01 10 00 00
  can0  000   [8]  22 06 00 00 00 80 24 42
  can0  000   [8]  22 07 00 00 00 00 1E 42
  can0  000   [8]  22 11 00 00 32 5B 5A 42
  can0  000   [8]  22 12 00 00 90 EE C2 41
  can0  000   [8]  22 13 00 00 4E 4F 59 42
  can0  000   [8]  22 14 00 00 97 7C C3 41
  can0  000   [8]  22 15 00 00 90 EE C2 41
  can0  000   [8]  22 16 00 00 F2 41 6F 3E
  can0  000   [8]  22 17 00 00 32 5B 5A 42
  can0  000   [8]  22 18 00 00 20 1F B4 3D
  can0  000   [8]  22 21 00 00 20 1F B4 3D
  can0  000   [8]  22 2A 00 00 00 00 00 00
  can0  000   [8]  22 2B 00 00 01 10 00 00
  can0  000   [8]  22 06 00 00 00 C0 24 42
  can0  000   [8]  22 07 00 00 00 40 1F 42
  can0  000   [8]  22 11 00 00 8C 2E 5A 42
  can0  000   [8]  22 12 00 00 EC BA C2 41
  can0  000   [8]  22 13 00 00 FB 38 59 42
  can0  000   [8]  22 14 00 00 AE 6F C3 41
  can0  000   [8]  22 15 00 00 EC BA C2 41
  can0  000   [8]  22 16 00 00 D1 91 AC 3E
  can0  000   [8]  22 17 00 00 32 5B 5A 42
  can0  000   [8]  22 18 00 00 DE E0 2B 3E
  can0  000   [8]  22 21 00 00 DE E0 2B 3E
  can0  000   [8]  22 2A 00 00 00 00 00 00
  can0  000   [8]  22 2B 00 00 01 10 00 00
  can0  000   [8]  22 06 00 00 00 00 24 42
  can0  000   [8]  22 07 00 00 00 C0 1E 42
  can0  000   [8]  22 11 00 00 8C 2E 5A 42
  can0  000   [8]  22 12 00 00 63 08 C3 41
  can0  000   [8]  22 13 00 00 4E 4F 59 42
  can0  000   [8]  22 14 00 00 3D B0 C3 41
  can0  000   [8]  22 15 00 00 63 08 C3 41
  can0  000   [8]  22 16 00 00 18 E2 78 3E
  can0  000   [8]  22 17 00 00 7D B4 5A 42
  can0  000   [8]  22 18 00 00 2A A9 83 3E
  can0  000   [8]  22 21 00 00 2A A9 83 3E
  can0  000   [8]  22 2A 00 00 00 00 00 00
  can0  000   [8]  22 2B 00 00 01 10 00 00
  can0  000   [8]  22 06 00 00 00 80 24 42
  can0  000   [8]  22 07 00 00 00 C0 1E 42
  can0  000   [8]  22 11 00 00 E6 01 5A 42
  can0  000   [8]  22 12 00 00 D5 C7 C2 41
  can0  000   [8]  22 13 00 00 DF 44 5A 42
  can0  000   [8]  22 14 00 00 26 BD C3 41
  can0  000   [8]  22 15 00 00 D5 C7 C2 41
  can0  000   [8]  22 16 00 00 A3 70 1D 3E
  can0  000   [8]  22 17 00 00 DF 44 5A 42
  can0  000   [8]  22 18 00 00 AA CF D5 3D
  can0  000   [8]  22 21 00 00 AA CF D5 3D
  can0  000   [8]  22 2A 00 00 00 00 00 00
  can0  000   [8]  22 2B 00 00 01 10 00 00
  can0  000   [8]  22 06 00 00 00 80 25 42
  can0  000   [8]  22 07 00 00 00 C0 1E 42
  can0  000   [8]  22 11 00 00 93 EB 59 42
  can0  000   [8]  22 12 00 00 63 08 C3 41
  can0  000   [8]  22 13 00 00 47 92 59 42
  can0  000   [8]  22 14 00 00 3D B0 C3 41
  can0  000   [8]  22 15 00 00 63 08 C3 41
  can0  000   [8]  22 16 00 00 AC 69 5E 3E
  can0  000   [8]  22 17 00 00 7D B4 5A 42
  can0  000   [8]  22 18 00 00 55 30 0A 3E
  can0  000   [8]  22 21 00 00 55 30 0A 3E
  can0  000   [8]  22 2A 00 00 00 00 00 00
  can0  000   [8]  22 2B 00 00 01 10 00 00
  can0  000   [8]  22 06 00 00 00 C0 25 42
  can0  000   [8]  22 07 00 00 00 C0 20 42
  can0  000   [8]  22 11 00 00 8C 2E 5A 42
  can0  000   [8]  22 12 00 00 63 08 C3 41
  can0  000   [8]  22 13 00 00 4E 4F 59 42
  can0  000   [8]  22 14 00 00 0F CA C3 41
  can0  000   [8]  22 15 00 00 63 08 C3 41
  can0  000   [8]  22 16 00 00 37 F8 02 3E
  can0  000   [8]  22 17 00 00 DF 44 5A 42
  can0  000   [8]  22 18 00 00 0C E0 ED 3D
  can0  000   [8]  22 21 00 00 0C E0 ED 3D
  can0  000   [8]  22 2A 00 00 00 00 00 00
  can0  000   [8]  22 2B 00 00 01 10 00 00
  can0  000   [8]  22 06 00 00 00 40 26 42
  can0  000   [8]  22 07 00 00 00 C0 1E 42
  can0  000   [8]  22 11 00 00 39 18 5A 42
  can0  000   [8]  22 12 00 00 A7 E1 C2 41
  can0  000   [8]  22 13 00 00 F4 7B 59 42
  can0  000   [8]  22 14 00 00 B1 B4 C5 41
  can0  000   [8]  22 15 00 00 A7 E1 C2 41
  can0  000   [8]  22 16 00 00 34 80 F7 3D
  can0  000   [8]  22 17 00 00 7D B4 5A 42
  can0  000   [8]  22 18 00 00 AD D8 1F 3E
  can0  000   [8]  22 21 00 00 AD D8 1F 3E
  can0  000   [8]  22 2A 00 00 00 00 00 00
  can0  000   [8]  22 2B 00 00 01 10 00 00
  can0  000   [8]  22 06 00 00 00 00 25 42
  can0  000   [8]  22 07 00 00 00 80 1F 42
  can0  000   [8]  22 11 00 00 E6 01 5A 42
  can0  000   [8]  22 12 00 00 A7 E1 C2 41
  can0  000   [8]  22 13 00 00 A1 65 59 42
  can0  000   [8]  22 14 00 00 B4 FD C3 41
  can0  000   [8]  22 15 00 00 A7 E1 C2 41
  can0  000   [8]  22 16 00 00 2D 21 3F 3E
  can0  000   [8]  22 17 00 00 7D B4 5A 42
  can0  000   [8]  22 18 00 00 41 F1 43 3E
  can0  000   [8]  22 21 00 00 41 F1 43 3E
  can0  000   [8]  22 2A 00 00 00 00 00 00
  can0  000   [8]  22 2B 00 00 01 10 00 00
  can0  000   [8]  22 06 00 00 00 80 24 42
  can0  000   [8]  22 07 00 00 00 80 20 42
  can0  000   [8]  22 11 00 00 39 18 5A 42
  can0  000   [8]  22 12 00 00 F1 48 C3 41
  can0  000   [8]  22 13 00 00 A1 65 59 42
  can0  000   [8]  22 14 00 00 F1 48 C3 41
  can0  000   [8]  22 15 00 00 F1 48 C3 41
  can0  000   [8]  22 16 00 00 A0 89 A0 3E
  can0  000   [8]  22 17 00 00 D7 87 5A 42
  can0  000   [8]  22 18 00 00 E4 3F E4 3D
  can0  000   [8]  22 21 00 00 E4 3F E4 3D
  can0  000   [8]  22 2A 00 00 00 00 00 00
  can0  000   [8]  22 2B 00 00 01 10 00 00
  can0  000   [8]  22 06 00 00 00 C0 25 42
  can0  000   [8]  22 07 00 00 00 40 1F 42
  can0  000   [8]  22 11 00 00 40 D5 59 42
  can0  000   [8]  22 12 00 00 46 87 C2 41
  can0  000   [8]  22 13 00 00 A8 22 59 42
  can0  000   [8]  22 14 00 00 26 BD C3 41
  can0  000   [8]  22 15 00 00 46 87 C2 41
  can0  000   [8]  22 16 00 00 FC 18 33 3E
  can0  000   [8]  22 17 00 00 2A 9E 5A 42
  can0  000   [8]  22 18 00 00 86 C9 54 3E
  can0  000   [8]  22 21 00 00 86 C9 54 3E
  can0  000   [8]  22 2A 00 00 00 00 00 00
  can0  000   [8]  22 2B 00 00 01 10 00 00
  can0  000   [8]  22 06 00 00 00 C0 24 42
  can0  000   [8]  22 07 00 00 00 C0 1F 42
  can0  000   [8]  22 11 00 00 8C 2E 5A 42
  can0  000   [8]  22 12 00 00 63 08 C3 41
  can0  000   [8]  22 13 00 00 A1 65 59 42
  can0  000   [8]  22 14 00 00 CB F0 C3 41
  can0  000   [8]  22 15 00 00 63 08 C3 41
  can0  000   [8]  22 16 00 00 DE 71 6A 3E
  can0  000   [8]  22 17 00 00 7D B4 5A 42
  can0  000   [8]  22 18 00 00 37 F8 02 3E
  can0  000   [8]  22 21 00 00 37 F8 02 3E
  can0  000   [8]  22 2A 00 00 00 00 00 00
  can0  000   [8]  22 2B 00 00 01 10 00 00
  can0  000   [8]  22 06 00 00 00 00 25 42
  can0  000   [8]  22 07 00 00 00 C0 1F 42
  can0  000   [8]  22 11 00 00 8C 2E 5A 42
  can0  000   [8]  22 12 00 00 7A FB C2 41
  can0  000   [8]  22 13 00 00 FB 38 59 42
  can0  000   [8]  22 14 00 00 0F CA C3 41
  can0  000   [8]  22 15 00 00 7A FB C2 41
  can0  000   [8]  22 16 00 00 4A 59 46 3E
  can0  000   [8]  22 17 00 00 39 18 5A 42
  can0  000   [8]  22 18 00 00 C2 F5 A8 3E
  can0  000   [8]  22 21 00 00 C2 F5 A8 3E
  can0  000   [8]  22 2A 00 00 00 00 00 00
  can0  000   [8]  22 2B 00 00 01 10 00 00
  can0  000   [8]  22 06 00 00 00 00 24 42
  can0  000   [8]  22 07 00 00 00 C0 1E 42
  can0  000   [8]  22 11 00 00 39 18 5A 42
  can0  000   [8]  22 12 00 00 4D 15 C3 41
  can0  000   [8]  22 13 00 00 F4 7B 59 42
  can0  000   [8]  22 14 00 00 B4 FD C3 41
  can0  000   [8]  22 15 00 00 4D 15 C3 41
  can0  000   [8]  22 16 00 00 42 AD 89 3E
  can0  000   [8]  22 17 00 00 2A 9E 5A 42
  can0  000   [8]  22 18 00 00 90 31 57 3E
  can0  000   [8]  22 21 00 00 90 31 57 3E
  can0  000   [8]  22 2A 00 00 00 00 00 00
  can0  000   [8]  22 2B 00 00 01 10 00 00
  can0  000   [8]  22 06 00 00 00 00 24 42
  can0  000   [8]  22 07 00 00 00 C0 1F 42
  can0  000   [8]  22 11 00 00 E6 01 5A 42
  can0  000   [8]  22 12 00 00 7A FB C2 41
  can0  000   [8]  22 13 00 00 47 92 59 42
  can0  000   [8]  22 14 00 00 B4 FD C3 41
  can0  000   [8]  22 15 00 00 7A FB C2 41
  can0  000   [8]  22 16 00 00 3E 79 88 3E
  can0  000   [8]  22 17 00 00 D0 CA 5A 42
  can0  000   [8]  22 18 00 00 10 E9 37 3E
  can0  000   [8]  22 21 00 00 10 E9 37 3E
  can0  000   [8]  22 2A 00 00 00 00 00 00
  can0  000   [8]  22 2B 00 00 01 10 00 00
  can0  000   [8]  22 06 00 00 00 C0 24 42
  can0  000   [8]  22 07 00 00 00 00 20 42
  can0  000   [8]  22 11 00 00 E6 01 5A 42
  can0  000   [8]  22 12 00 00 BD D4 C2 41
  can0  000   [8]  22 13 00 00 FB 38 59 42
  can0  000   [8]  22 14 00 00 53 A3 C3 41
  can0  000   [8]  22 15 00 00 BD D4 C2 41
  can0  000   [8]  22 16 00 00 AA F1 A2 3E
  can0  000   [8]  22 17 00 00 32 5B 5A 42
  can0  000   [8]  22 18 00 00 10 7A 76 3E
  can0  000   [8]  22 21 00 00 10 7A 76 3E
  can0  000   [8]  22 2A 00 00 00 00 00 00
  can0  000   [8]  22 2B 00 00 01 10 00 00
  can0  000   [8]  22 06 00 00 00 80 25 42
  can0  000   [8]  22 07 00 00 00 00 20 42
  can0  000   [8]  22 11 00 00 93 EB 59 42
  can0  000   [8]  22 12 00 00 63 08 C3 41
  can0  000   [8]  22 13 00 00 F4 7B 59 42
  can0  000   [8]  22 14 00 00 B4 FD C3 41
  can0  000   [8]  22 15 00 00 63 08 C3 41
  can0  000   [8]  22 16 00 00 96 21 9E 3E
  can0  000   [8]  22 17 00 00 7D B4 5A 42
  can0  000   [8]  22 18 00 00 F2 41 6F 3E
  can0  000   [8]  22 21 00 00 F2 41 6F 3E
  can0  000   [8]  22 2A 00 00 00 00 00 00
  can0  000   [8]  22 2B 00 00 01 10 00 00
  can0  000   [8]  22 06 00 00 00 80 26 42
  can0  000   [8]  22 07 00 00 00 80 20 42
  can0  000   [8]  22 11 00 00 D7 87 5A 42
  can0  000   [8]  22 12 00 00 EC BA C2 41
  can0  000   [8]  22 13 00 00 4E 4F 59 42
  can0  000   [8]  22 14 00 00 26 BD C3 41
  can0  000   [8]  22 15 00 00 EC BA C2 41
  can0  000   [8]  22 16 00 00 18 E2 78 3E
  can0  000   [8]  22 17 00 00 32 5B 5A 42
  can0  000   [8]  22 18 00 00 22 4A 7B 3E
  can0  000   [8]  22 21 00 00 22 4A 7B 3E
  can0  000   [8]  22 2A 00 00 00 00 00 00
  can0  000   [8]  22 2B 00 00 01 10 00 00
  can0  000   [8]  22 06 00 00 00 80 26 42
  can0  000   [8]  22 07 00 00 00 00 20 42
  can0  000   [8]  22 11 00 00 93 EB 59 42
  can0  000   [8]  22 12 00 00 BD D4 C2 41
  can0  000   [8]  22 13 00 00 A1 65 59 42
  can0  000   [8]  22 14 00 00 80 89 C3 41
  can0  000   [8]  22 15 00 00 BD D4 C2 41
  can0  000   [8]  22 16 00 00 34 EF B8 3D
  can0  000   [8]  22 17 00 00 D7 87 5A 42
  can0  000   [8]  22 18 00 00 B7 40 22 3E
  can0  000   [8]  22 21 00 00 B7 40 22 3E
  can0  000   [8]  22 2A 00 00 00 00 00 00
  can0  000   [8]  22 2B 00 00 01 10 00 00
  can0  000   [8]  22 06 00 00 00 00 25 42
  can0  000   [8]  22 07 00 00 00 40 1F 42
  can0  000   [8]  22 11 00 00 39 18 5A 42
  can0  000   [8]  22 12 00 00 36 22 C3 41
  can0  000   [8]  22 13 00 00 A1 65 59 42
  can0  000   [8]  22 14 00 00 80 89 C3 41
  can0  000   [8]  22 15 00 00 36 22 C3 41
  can0  000   [8]  22 16 00 00 65 19 92 3E
  can0  000   [8]  22 17 00 00 84 71 5A 42
  can0  000   [8]  22 18 00 00 19 51 3A 3E
  can0  000   [8]  22 21 00 00 19 51 3A 3E
  can0  000   [8]  22 2A 00 00 00 00 00 00
  can0  000   [8]  22 2B 00 00 01 10 00 00
  can0  000   [8]  22 06 00 00 00 80 26 42
  can0  000   [8]  22 07 00 00 00 40 1F 42
  can0  000   [8]  22 11 00 00 8C 2E 5A 42
  can0  000   [8]  22 12 00 00 BD D4 C2 41
  can0  000   [8]  22 13 00 00 A1 65 59 42
  can0  000   [8]  22 14 00 00 B4 FD C3 41
  can0  000   [8]  22 15 00 00 BD D4 C2 41
  can0  000   [8]  22 16 00 00 86 38 16 3E
  can0  000   [8]  22 17 00 00 32 5B 5A 42
  can0  000   [8]  22 18 00 00 F3 FD B4 3E
  can0  000   [8]  22 21 00 00 F3 FD B4 3E
  can0  000   [8]  22 2A 00 00 00 00 00 00
  can0  000   [8]  22 2B 00 00 01 10 00 00
  can0  000   [8]  22 06 00 00 00 00 25 42
  can0  000   [8]  22 07 00 00 00 40 20 42
  can0  000   [8]  22 11 00 00 39 18 5A 42
  can0  000   [8]  22 12 00 00 63 08 C3 41
  can0  000   [8]  22 13 00 00 4E 4F 59 42
  can0  000   [8]  22 14 00 00 53 A3 C3 41
  can0  000   [8]  22 15 00 00 63 08 C3 41
  can0  000   [8]  22 16 00 00 18 E2 78 3E
  can0  000   [8]  22 17 00 00 84 71 5A 42
  can0  000   [8]  22 18 00 00 41 60 05 3E
  can0  000   [8]  22 21 00 00 41 60 05 3E
  can0  000   [8]  22 2A 00 00 00 00 00 00
  can0  000   [8]  22 2B 00 00 01 10 00 00
  can0  000   [8]  22 06 00 00 00 00 26 42
  can0  000   [8]  22 07 00 00 00 80 1F 42
  can0  000   [8]  22 11 00 00 39 18 5A 42
  can0  000   [8]  22 12 00 00 1F 2F C3 41
  can0  000   [8]  22 13 00 00 9A A8 59 42
  can0  000   [8]  22 14 00 00 53 A3 C3 41
  can0  000   [8]  22 15 00 00 1F 2F C3 41
  can0  000   [8]  22 16 00 00 D4 09 68 3E
  can0  000   [8]  22 17 00 00 23 E1 5A 42
  can0  000   [8]  22 18 00 00 25 75 82 3E
  can0  000   [8]  22 21 00 00 25 75 82 3E
  can0  000   [8]  22 2A 00 00 00 00 00 00
  can0  000   [8]  22 2B 00 00 01 10 00 00
  can0  000   [8]  22 06 00 00 00 C0 24 42
  can0  000   [8]  22 07 00 00 00 80 21 42
  can0  000   [8]  22 11 00 00 93 EB 59 42
  can0  000   [8]  22 12 00 00 90 EE C2 41
  can0  000   [8]  22 13 00 00 47 92 59 42
  can0  000   [8]  22 14 00 00 3D B0 C3 41
  can0  000   [8]  22 15 00 00 90 EE C2 41
  can0  000   [8]  22 16 00 00 2A A9 83 3E
  can0  000   [8]  22 17 00 00 7D B4 5A 42
  can0  000   [8]  22 18 00 00 34 EF B8 3D
  can0  000   [8]  22 21 00 00 34 EF B8 3D
  can0  000   [8]  22 2A 00 00 00 00 00 00
  can0  000   [8]  22 2B 00 00 01 10 00 00
  can0  000   [8]  22 06 00 00 00 C0 25 42
  can0  000   [8]  22 07 00 00 00 80 1F 42
  can0  000   [8]  22 11 00 00 93 EB 59 42
  can0  000   [8]  22 12 00 00 63 08 C3 41
  can0  000   [8]  22 13 00 00 F4 7B 59 42
  can0  000   [8]  22 14 00 00 0F CA C3 41
  can0  000   [8]  22 15 00 00 63 08 C3 41
  can0  000   [8]  22 16 00 00 51 49 8D 3E
  can0  000   [8]  22 17 00 00 DF 44 5A 42
  can0  000   [8]  22 18 00 00 F2 B0 30 3E
  can0  000   [8]  22 21 00 00 F2 B0 30 3E
  can0  000   [8]  22 2A 00 00 00 00 00 00
  can0  000   [8]  22 2B 00 00 01 10 00 00
  can0  000   [8]  22 06 00 00 00 C0 24 42
  can0  000   [8]  22 07 00 00 00 40 21 42
  can0  000   [8]  22 11 00 00 93 EB 59 42
  can0  000   [8]  22 12 00 00 90 EE C2 41
  can0  000   [8]  22 13 00 00 F4 7B 59 42
  can0  000   [8]  22 14 00 00 AE 6F C3 41
  can0  000   [8]  22 15 00 00 90 EE C2 41
  can0  000   [8]  22 16 00 00 42 AD 89 3E
  can0  000   [8]  22 17 00 00 2A 9E 5A 42
  can0  000   [8]  22 18 00 00 C1 A8 24 3E
  can0  000   [8]  22 21 00 00 C1 A8 24 3E
  can0  000   [8]  22 2A 00 00 00 00 00 00
  can0  000   [8]  22 2B 00 00 01 10 00 00
  can0  000   [8]  22 06 00 00 00 C0 23 42
  can0  000   [8]  22 07 00 00 00 00 20 42
  can0  000   [8]  22 11 00 00 39 18 5A 42
  can0  000   [8]  22 12 00 00 A7 E1 C2 41
  can0  000   [8]  22 13 00 00 A1 65 59 42
  can0  000   [8]  22 14 00 00 42 3E C4 41
  can0  000   [8]  22 15 00 00 A7 E1 C2 41
  can0  000   [8]  22 16 00 00 86 C9 54 3E
  can0  000   [8]  22 17 00 00 84 71 5A 42
  can0  000   [8]  22 18 00 00 D4 09 68 3E
  can0  000   [8]  22 21 00 00 D4 09 68 3E
  can0  000   [8]  22 2A 00 00 00 00 00 00
  can0  000   [8]  22 2B 00 00 01 10 00 00
  can0  000   [8]  22 06 00 00 00 C0 25 42
  can0  000   [8]  22 07 00 00 00 00 20 42
  can0  000   [8]  22 11 00 00 39 18 5A 42
  can0  000   [8]  22 12 00 00 A7 E1 C2 41
  can0  000   [8]  22 13 00 00 47 92 59 42
  can0  000   [8]  22 14 00 00 0F CA C3 41
  can0  000   [8]  22 15 00 00 A7 E1 C2 41
  can0  000   [8]  22 16 00 00 7C D0 13 3E
  can0  000   [8]  22 17 00 00 2A 9E 5A 42
  can0  000   [8]  22 18 00 00 41 F1 43 3E
  can0  000   [8]  22 21 00 00 41 F1 43 3E
  can0  000   [8]  22 2A 00 00 00 00 00 00
  can0  000   [8]  22 2B 00 00 01 10 00 00
  can0  000   [8]  22 06 00 00 00 80 26 42
  can0  000   [8]  22 07 00 00 00 40 21 42
  can0  000   [8]  22 11 00 00 39 18 5A 42
  can0  000   [8]  22 12 00 00 2F 94 C2 41
  can0  000   [8]  22 13 00 00 F4 7B 59 42
  can0  000   [8]  22 14 00 00 3D B0 C3 41
  can0  000   [8]  22 15 00 00 2F 94 C2 41
  can0  000   [8]  22 16 00 00 4A 59 46 3E
  can0  000   [8]  22 17 00 00 23 E1 5A 42
  can0  000   [8]  22 18 00 00 68 91 4D 3E
  can0  000   [8]  22 21 00 00 68 91 4D 3E
  can0  000   [8]  22 2A 00 00 00 00 00 00
  can0  000   [8]  22 2B 00 00 01 10 00 00
  can0  000   [8]  22 06 00 00 00 00 24 42
  can0  000   [8]  22 07 00 00 00 40 21 42
  can0  000   [8]  22 11 00 00 93 EB 59 42
  can0  000   [8]  22 12 00 00 BD D4 C2 41
  can0  000   [8]  22 13 00 00 4E 4F 59 42
  can0  000   [8]  22 14 00 00 F1 48 C3 41
  can0  000   [8]  22 15 00 00 BD D4 C2 41
  can0  000   [8]  22 16 00 00 9A 08 1B 3E
  can0  000   [8]  22 17 00 00 7D B4 5A 42
  can0  000   [8]  22 18 00 00 CA A1 65 3E
  can0  000   [8]  22 21 00 00 CA A1 65 3E
  can0  000   [8]  22 2A 00 00 00 00 00 00
  can0  000   [8]  22 2B 00 00 01 10 00 00
  can0  000   [8]  22 06 00 00 00 00 24 42
  can0  000   [8]  22 07 00 00 00 C0 21 42
  can0  000   [8]  22 11 00 00 DF 44 5A 42
  can0  000   [8]  22 12 00 00 6A 96 C3 41
  can0  000   [8]  22 13 00 00 4E 4F 59 42
  can0  000   [8]  22 14 00 00 B4 FD C3 41
  can0  000   [8]  22 15 00 00 6A 96 C3 41
  can0  000   [8]  22 16 00 00 DE E0 2B 3E
  can0  000   [8]  22 17 00 00 D7 87 5A 42
  can0  000   [8]  22 18 00 00 10 7A 76 3E
  can0  000   [8]  22 21 00 00 10 7A 76 3E
  can0  000   [8]  22 2A 00 00 00 00 00 00
  can0  000   [8]  22 2B 00 00 01 10 00 00
  can0  000   [8]  22 06 00 00 00 80 26 42
  can0  000   [8]  22 07 00 00 00 C0 1F 42
  can0  000   [8]  22 11 00 00 8C 2E 5A 42
  can0  000   [8]  22 12 00 00 4D 15 C3 41
  can0  000   [8]  22 13 00 00 A8 22 59 42
  can0  000   [8]  22 14 00 00 0F CA C3 41
  can0  000   [8]  22 15 00 00 4D 15 C3 41
  can0  000   [8]  22 16 00 00 06 12 74 3E
  can0  000   [8]  22 17 00 00 DF 44 5A 42
  can0  000   [8]  22 18 00 00 9A 99 59 3E
  can0  000   [8]  22 21 00 00 9A 99 59 3E
  can0  000   [8]  22 2A 00 00 00 00 00 00
  can0  000   [8]  22 2B 00 00 01 10 00 00
  can0  000   [8]  22 06 00 00 00 40 26 42
  can0  000   [8]  22 07 00 00 00 40 21 42
  can0  000   [8]  22 11 00 00 8C 2E 5A 42
  can0  000   [8]  22 12 00 00 90 EE C2 41
  can0  000   [8]  22 13 00 00 F4 7B 59 42
  can0  000   [8]  22 14 00 00 E1 E3 C3 41
  can0  000   [8]  22 15 00 00 90 EE C2 41
  can0  000   [8]  22 16 00 00 37 F8 02 3E
  can0  000   [8]  22 17 00 00 D0 CA 5A 42
  can0  000   [8]  22 18 00 00 19 51 3A 3E
  can0  000   [8]  22 21 00 00 19 51 3A 3E
  can0  000   [8]  22 2A 00 00 00 00 00 00
  can0  000   [8]  22 2B 00 00 01 10 00 00
  can0  000   [8]  22 06 00 00 00 80 26 42
  can0  000   [8]  22 07 00 00 00 80 21 42
  can0  000   [8]  22 11 00 00 E6 01 5A 42
  can0  000   [8]  22 12 00 00 63 08 C3 41
  can0  000   [8]  22 13 00 00 4E 4F 59 42
  can0  000   [8]  22 14 00 00 09 3C C3 41
  can0  000   [8]  22 15 00 00 63 08 C3 41
  can0  000   [8]  22 16 00 00 E6 AE A5 3D
  can0  000   [8]  22 17 00 00 D7 87 5A 42
  can0  000   [8]  22 18 00 00 F8 0F E9 3D
  can0  000   [8]  22 21 00 00 F8 0F E9 3D
  can0  000   [8]  22 2A 00 00 00 00 00 00
  can0  000   [8]  22 2B 00 00 01 10 00 00
  can0  000   [8]  22 06 00 00 00 80 25 42
  can0  000   [8]  22 07 00 00 00 C0 1F 42
  can0  000   [8]  22 11 00 00 93 EB 59 42
  can0  000   [8]  22 12 00 00 C4 62 C3 41
  can0  000   [8]  22 13 00 00 4E 4F 59 42
  can0  000   [8]  22 14 00 00 97 7C C3 41
  can0  000   [8]  22 15 00 00 C4 62 C3 41
  can0  000   [8]  22 16 00 00 6F 81 94 3E
  can0  000   [8]  22 17 00 00 D7 87 5A 42
  can0  000   [8]  22 18 00 00 48 50 FC 3D
  can0  000   [8]  22 21 00 00 48 50 FC 3D
  can0  000   [8]  22 2A 00 00 00 00 00 00
  can0  000   [8]  22 2B 00 00 01 10 00 00
  can0  000   [8]  22 06 00 00 00 C0 24 42
  can0  000   [8]  22 07 00 00 00 C0 21 42
  can0  000   [8]  22 11 00 00 E6 01 5A 42
  can0  000   [8]  22 12 00 00 5C 7A C2 41
  can0  000   [8]  22 13 00 00 4E 4F 59 42
  can0  000   [8]  22 14 00 00 AE 6F C3 41
  can0  000   [8]  22 15 00 00 5C 7A C2 41
  can0  000   [8]  22 16 00 00 D4 09 68 3E
  can0  000   [8]  22 17 00 00 2A 9E 5A 42
  can0  000   [8]  22 18 00 00 B6 D1 60 3E
  can0  000   [8]  22 21 00 00 B6 D1 60 3E
  can0  000   [8]  22 2A 00 00 00 00 00 00
  can0  000   [8]  22 2B 00 00 01 10 00 00
  can0  000   [8]  22 06 00 00 00 80 26 42
  can0  000   [8]  22 07 00 00 00 C0 1F 42
  can0  000   [8]  22 11 00 00 8C 2E 5A 42
  can0  000   [8]  22 12 00 00 09 3C C3 41
  can0  000   [8]  22 13 00 00 4E 4F 59 42
  can0  000   [8]  22 14 00 00 B4 FD C3 41
  can0  000   [8]  22 15 00 00 09 3C C3 41
  can0  000   [8]  22 16 00 00 E8 D9 6C 3E
  can0  000   [8]  22 17 00 00 84 71 5A 42
  can0  000   [8]  22 18 00 00 5E 29 4B 3E
  can0  000   [8]  22 21 00 00 5E 29 4B 3E
  can0  000   [8]  22 2A 00 00 00 00 00 00
  can0  000   [8]  22 2B 00 00 01 10 00 00
  can0  000   [8]  22 06 00 00 00 C0 25 42
  can0  000   [8]  22 07 00 00 00 C0 22 42
  can0  000   [8]  22 11 00 00 40 D5 59 42
  can0  000   [8]  22 12 00 00 53 A3 C3 41
  can0  000   [8]  22 13 00 00 F4 7B 59 42
  can0  000   [8]  22 14 00 00 80 89 C3 41
  can0  000   [8]  22 15 00 00 53 A3 C3 41
  can0  000   [8]  22 16 00 00 82 51 99 3E
  can0  000   [8]  22 17 00 00 2A 9E 5A 42
  can0  000   [8]  22 18 00 00 41 F1 43 3E
  can0  000   [8]  22 21 00 00 41 F1 43 3E
  can0  000   [8]  22 2A 00 00 00 00 00 00
  can0  000   [8]  22 2B 00 00 01 10 00 00
  can0  000   [8]  22 06 00 00 00 40 26 42
  can0  000   [8]  22 07 00 00 00 80 21 42
  can0  000   [8]  22 11 00 00 E6 01 5A 42
  can0  000   [8]  22 12 00 00 F1 48 C3 41
  can0  000   [8]  22 13 00 00 F4 7B 59 42
  can0  000   [8]  22 14 00 00 F8 D6 C3 41
  can0  000   [8]  22 15 00 00 F1 48 C3 41
  can0  000   [8]  22 16 00 00 CC 5D AB 3E
  can0  000   [8]  22 17 00 00 2A 9E 5A 42
  can0  000   [8]  22 18 00 00 5E 29 4B 3E
  can0  000   [8]  22 21 00 00 5E 29 4B 3E
  can0  000   [8]  22 2A 00 00 00 00 00 00
  can0  000   [8]  22 2B 00 00 01 10 00 00
  can0  000   [8]  22 06 00 00 00 C0 25 42
  can0  000   [8]  22 07 00 00 00 80 21 42
  can0  000   [8]  22 11 00 00 8C 2E 5A 42
  can0  000   [8]  22 12 00 00 A7 E1 C2 41
  can0  000   [8]  22 13 00 00 ED BE 59 42
  can0  000   [8]  22 14 00 00 E1 E3 C3 41
  can0  000   [8]  22 15 00 00 A7 E1 C2 41
  can0  000   [8]  22 16 00 00 06 12 74 3E
  can0  000   [8]  22 17 00 00 2A 9E 5A 42
  can0  000   [8]  22 18 00 00 F8 0F E9 3D
  can0  000   [8]  22 21 00 00 F8 0F E9 3D
  can0  000   [8]  22 2A 00 00 00 00 00 00
  can0  000   [8]  22 2B 00 00 01 10 00 00
  can0  000   [8]  22 06 00 00 00 80 25 42
  can0  000   [8]  22 07 00 00 00 00 21 42
  can0  000   [8]  22 11 00 00 E6 01 5A 42
  can0  000   [8]  22 12 00 00 A7 E1 C2 41
  can0  000   [8]  22 13 00 00 F4 7B 59 42
  can0  000   [8]  22 14 00 00 F8 D6 C3 41
  can0  000   [8]  22 15 00 00 A7 E1 C2 41
  can0  000   [8]  22 16 00 00 AD D8 1F 3E
  can0  000   [8]  22 17 00 00 D0 CA 5A 42
  can0  000   [8]  22 18 00 00 2C B2 7D 3E
  can0  000   [8]  22 21 00 00 2C B2 7D 3E
  can0  000   [8]  22 2A 00 00 00 00 00 00
  can0  000   [8]  22 2B 00 00 01 10 00 00
  can0  000   [8]  22 06 00 00 00 80 25 42
  can0  000   [8]  22 07 00 00 00 40 21 42
  can0  000   [8]  22 11 00 00 8C 2E 5A 42
  can0  000   [8]  22 12 00 00 63 08 C3 41
  can0  000   [8]  22 13 00 00 56 0C 59 42
  can0  000   [8]  22 14 00 00 3D B0 C3 41
  can0  000   [8]  22 15 00 00 63 08 C3 41
  can0  000   [8]  22 16 00 00 39 45 87 3E
  can0  000   [8]  22 17 00 00 DF 44 5A 42
  can0  000   [8]  22 18 00 00 65 19 92 3E
  can0  000   [8]  22 21 00 00 65 19 92 3E
  can0  000   [8]  22 2A 00 00 00 00 00 00
  can0  000   [8]  22 2B 00 00 01 10 00 00
  can0  000   [8]  22 06 00 00 00 40 26 42
  can0  000   [8]  22 07 00 00 00 00 20 42
  can0  000   [8]  22 11 00 00 32 5B 5A 42
  can0  000   [8]  22 12 00 00 BD D4 C2 41
  can0  000   [8]  22 13 00 00 A1 65 59 42
  can0  000   [8]  22 14 00 00 26 BD C3 41
  can0  000   [8]  22 15 00 00 BD D4 C2 41
  can0  000   [8]  22 16 00 00 E8 48 2E 3E
  can0  000   [8]  22 17 00 00 D7 87 5A 42
  can0  000   [8]  22 18 00 00 A3 70 1D 3E
  can0  000   [8]  22 21 00 00 A3 70 1D 3E
  can0  000   [8]  22 2A 00 00 00 00 00 00
  can0  000   [8]  22 2B 00 00 01 10 00 00
  can0  000   [8]  22 06 00 00 00 C0 25 42
  can0  000   [8]  22 07 00 00 00 00 21 42
  can0  000   [8]  22 11 00 00 8C 2E 5A 42
  can0  000   [8]  22 12 00 00 90 EE C2 41
  can0  000   [8]  22 13 00 00 FB 38 59 42
  can0  000   [8]  22 14 00 00 F8 D6 C3 41
  can0  000   [8]  22 15 00 00 90 EE C2 41
  can0  000   [8]  22 16 00 00 22 4A 7B 3E
  can0  000   [8]  22 17 00 00 7D B4 5A 42
  can0  000   [8]  22 18 00 00 87 85 9A 3E
  can0  000   [8]  22 21 00 00 87 85 9A 3E
  can0  000   [8]  22 2A 00 00 00 00 00 00
  can0  000   [8]  22 2B 00 00 01 10 00 00
  can0  000   [8]  22 06 00 00 00 C0 25 42
  can0  000   [8]  22 07 00 00 00 00 21 42
  can0  000   [8]  22 11 00 00 8C 2E 5A 42
  can0  000   [8]  22 12 00 00 90 EE C2 41
  can0  000   [8]  22 13 00 00 4E 4F 59 42
  can0  000   [8]  22 14 00 00 0F CA C3 41
  can0  000   [8]  22 15 00 00 90 EE C2 41
  can0  000   [8]  22 16 00 00 DE E0 2B 3E
  can0  000   [8]  22 17 00 00 DF 44 5A 42
  can0  000   [8]  22 18 00 00 41 F1 43 3E
  can0  000   [8]  22 21 00 00 41 F1 43 3E
  can0  000   [8]  22 2A 00 00 00 00 00 00
  can0  000   [8]  22 2B 00 00 01 10 00 00
  can0  000   [8]  22 06 00 00 00 C0 24 42
  can0  000   [8]  22 07 00 00 00 80 20 42
  can0  000   [8]  22 11 00 00 93 EB 59 42
  can0  000   [8]  22 12 00 00 A7 E1 C2 41
  can0  000   [8]  22 13 00 00 F4 7B 59 42
  can0  000   [8]  22 14 00 00 3D B0 C3 41
  can0  000   [8]  22 15 00 00 A7 E1 C2 41
  can0  000   [8]  22 16 00 00 CB 10 27 3E
  can0  000   [8]  22 17 00 00 D0 CA 5A 42
  can0  000   [8]  22 18 00 00 5B B1 8F 3E
  can0  000   [8]  22 21 00 00 5B B1 8F 3E
  can0  000   [8]  22 2A 00 00 00 00 00 00
  can0  000   [8]  22 2B 00 00 01 10 00 00
  can0  000   [8]  22 06 00 00 00 80 26 42
  can0  000   [8]  22 07 00 00 00 00 20 42
  can0  000   [8]  22 11 00 00 40 D5 59 42
  can0  000   [8]  22 12 00 00 4D 15 C3 41
  can0  000   [8]  22 13 00 00 F4 7B 59 42
  can0  000   [8]  22 14 00 00 AE 6F C3 41
  can0  000   [8]  22 15 00 00 4D 15 C3 41
  can0  000   [8]  22 16 00 00 AD D8 1F 3E
  can0  000   [8]  22 17 00 00 23 E1 5A 42
  can0  000   [8]  22 18 00 00 6A 4D 93 3E
  can0  000   [8]  22 21 00 00 6A 4D 93 3E
  can0  000   [8]  22 2A 00 00 00 00 00 00
  can0  000   [8]  22 2B 00 00 01 10 00 00
  can0  000   [8]  22 06 00 00 00 C0 26 42
  can0  000   [8]  22 07 00 00 00 40 20 42
  can0  000   [8]  22 11 00 00 8C 2E 5A 42
  can0  000   [8]  22 12 00 00 A7 E1 C2 41
  can0  000   [8]  22 13 00 00 FB 38 59 42
  can0  000   [8]  22 14 00 00 53 A3 C3 41
  can0  000   [8]  22 15 00 00 A7 E1 C2 41
  can0  000   [8]  22 16 00 00 06 12 74 3E
  can0  000   [8]  22 17 00 00 D7 87 5A 42
  can0  000   [8]  22 18 00 00 EA 95 B2 3E
  can0  000   [8]  22 21 00 00 EA 95 B2 3E
  can0  000   [8]  22 2A 00 00 00 00 00 00
  can0  000   [8]  22 2B 00 00 01 10 00 00
  can0  000   [8]  22 06 00 00 00 C0 25 42
  can0  000   [8]  22 07 00 00 00 C0 21 42
  can0  000   [8]  22 11 00 00 ED BE 59 42
  can0  000   [8]  22 12 00 00 63 08 C3 41
  can0  000   [8]  22 13 00 00 4E 4F 59 42
  can0  000   [8]  22 14 00 00 6A 96 C3 41
  can0  000   [8]  22 15 00 00 63 08 C3 41
  can0  000   [8]  22 16 00 00 9A 08 1B 3E
  can0  000   [8]  22 17 00 00 7D B4 5A 42
  can0  000   [8]  22 18 00 00 4B C8 07 3E
  can0  000   [8]  22 21 00 00 4B C8 07 3E
  can0  000   [8]  22 2A 00 00 00 00 00 00
  can0  000   [8]  22 2B 00 00 01 10 00 00
  can0  000   [8]  22 06 00 00 00 80 26 42
  can0  000   [8]  22 07 00 00 00 80 20 42
  can0  000   [8]  22 11 00 00 32 5B 5A 42
  can0  000   [8]  22 12 00 00 90 EE C2 41
  can0  000   [8]  22 13 00 00 A1 65 59 42
  can0  000   [8]  22 14 00 00 6A 96 C3 41
  can0  000   [8]  22 15 00 00 90 EE C2 41
  can0  000   [8]  22 16 00 00 55 30 0A 3E
  can0  000   [8]  22 17 00 00 D7 87 5A 42
  can0  000   [8]  22 18 00 00 9A 99 59 3E
  can0  000   [8]  22 21 00 00 9A 99 59 3E
  can0  000   [8]  22 2A 00 00 00 00 00 00
  can0  000   [8]  22 2B 00 00 01 10 00 00
  can0  000   [8]  22 06 00 00 00 40 25 42
  can0  000   [8]  22 07 00 00 00 C0 20 42
  can0  000   [8]  22 11 00 00 39 18 5A 42
  can0  000   [8]  22 12 00 00 02 AE C2 41
  can0  000   [8]  22 13 00 00 FB 38 59 42
  can0  000   [8]  22 14 00 00 3D B0 C3 41
  can0  000   [8]  22 15 00 00 02 AE C2 41
  can0  000   [8]  22 16 00 00 18 E2 78 3E
  can0  000   [8]  22 17 00 00 32 5B 5A 42
  can0  000   [8]  22 18 00 00 EA 95 B2 3E
  can0  000   [8]  22 21 00 00 EA 95 B2 3E
  can0  000   [8]  22 2A 00 00 00 00 00 00
  can0  000   [8]  22 2B 00 00 01 10 00 00
  can0  000   [8]  22 06 00 00 00 40 26 42
  can0  000   [8]  22 07 00 00 00 00 20 42
  can0  000   [8]  22 11 00 00 DF 44 5A 42
  can0  000   [8]  22 12 00 00 90 EE C2 41
  can0  000   [8]  22 13 00 00 A1 65 59 42
  can0  000   [8]  22 14 00 00 53 A3 C3 41
  can0  000   [8]  22 15 00 00 90 EE C2 41
  can0  000   [8]  22 16 00 00 E8 D9 6C 3E
  can0  000   [8]  22 17 00 00 2A 9E 5A 42
  can0  000   [8]  22 18 00 00 23 B9 3C 3E
  can0  000   [8]  22 21 00 00 23 B9 3C 3E
  can0  000   [8]  22 2A 00 00 00 00 00 00
  can0  000   [8]  22 2B 00 00 01 10 00 00
  can0  001   [8]  00 06 00 00 00 00 00 00
  can0  000   [8]  22 06 00 00 00 C0 25 42
  can0  000   [8]  0C 06 00 00 10 05 1C 42
  can0  000   [8]  10 06 00 00 E8 18 1B 42
  can0  000   [8]  11 06 00 00 40 57 1E 42
  can0  000   [8]  0E 06 00 00 78 BE 1F 42
  can0  000   [8]  0B 06 00 00 B8 70 17 42
  can0  000   [8]  0D 06 00 00 40 57 1E 42
  can0  000   [8]  0F 06 00 00 80 46 1F 42
  can0  000   [8]  0A 06 00 00 48 B8 19 42
                                                                                                                                                                                                                                                                                                                                                                                                                                                                                                                                                                                 can0  00B   [8]  00 0D 00 00 00 00 00 00
  can0  000   [8]  0B 0D 00 00 3E FE 3A 42
  can0  00B   [8]  00 13 00 00 00 00 00 00
  can0  000   [8]  0B 13 00 00 00 00 00 00
  can0  00B   [8]  00 14 00 00 00 00 00 00
  can0  000   [8]  0B 14 00 00 00 00 00 00
  can0  00B   [8]  00 17 00 00 00 00 00 00
  can0  000   [8]  0B 17 00 00 00 00 00 00
  can0  00B   [8]  00 18 00 00 00 00 00 00
  can0  000   [8]  0B 18 00 00 00 00 00 00
  can0  00B   [8]  00 1D 00 00 00 00 00 00
  can0  000   [8]  0B 1D 00 00 00 00 80 3F
  can0  00B   [8]  00 1E 00 00 00 00 00 00
  can0  000   [8]  0B 1E 00 00 00 00 80 3F
  can0  00C   [8]  00 06 00 00 00 00 00 00
  can0  000   [8]  0C 06 00 00 00 E5 17 42
  can0  00C   [8]  00 08 00 00 00 00 00 00
  can0  000   [8]  0C 08 00 00 18 48 14 42
  can0  00C   [8]  00 0A 00 00 00 00 00 00
  can0  000   [8]  0C 0A 00 00 E0 E2 0B 42
  can0  00C   [8]  00 0C 00 00 00 00 00 00
  can0  000   [8]  0C 0C 00 00 3C D8 40 42
  can0  00C   [8]  00 11 00 00 00 00 00 00
  can0  000   [8]  0C 11 00 00 00 00 00 00
  can0  00C   [8]  00 12 00 00 00 00 00 00
  can0  000   [8]  0C 12 00 00 00 00 00 00
  can0  00C   [8]  00 15 00 00 00 00 00 00
  can0  000   [8]  0C 15 00 00 00 00 00 00
  can0  000   [8]  22 06 00 00 00 C0 0B 42
  can0  000   [8]  22 07 00 00 00 40 06 42
  can0  000   [8]  22 11 00 00 8C 2E 5A 42
  can0  000   [8]  22 12 00 00 90 EE C2 41
  can0  000   [8]  22 13 00 00 A1 65 59 42
  can0  000   [8]  22 14 00 00 0F CA C3 41
  can0  000   [8]  22 15 00 00 90 EE C2 41
  can0  000   [8]  22 16 00 00 AD D8 1F 3E
  can0  000   [8]  22 17 00 00 DF 44 5A 42
  can0  000   [8]  22 18 00 00 90 A0 18 3E
  can0  000   [8]  22 21 00 00 90 A0 18 3E
  can0  000   [8]  22 2A 00 00 01 08 00 00
  can0  000   [8]  22 2B 00 00 01 18 00 00
  can0  00C   [8]  00 16 00 00 00 00 00 00
  can0  000   [8]  0C 16 00 00 00 00 00 00
  can0  00C   [8]  00 1B 00 00 00 00 00 00
  can0  000   [8]  0C 1B 00 00 00 00 80 3F
  can0  00C   [8]  00 1C 00 00 00 00 00 00
  can0  000   [8]  0C 1C 00 00 00 00 80 3F
  can0  00C   [8]  00 07 00 00 00 00 00 00
  can0  000   [8]  0C 07 00 00 38 0C 12 42
  can0  00C   [8]  00 09 00 00 00 00 00 00
  can0  000   [8]  0C 09 00 00 80 B7 09 42
  can0  00C   [8]  00 0B 00 00 00 00 00 00
  can0  000   [8]  0C 0B 00 00 18 A2 0D 42
  can0  00C   [8]  00 0D 00 00 00 00 00 00
  can0  000   [8]  0C 0D 00 00 40 68 F4 41
  can0  00C   [8]  00 13 00 00 00 00 00 00
  can0  000   [8]  0C 13 00 00 00 00 00 00
  can0  00C   [8]  00 14 00 00 00 00 00 00
  can0  000   [8]  0C 14 00 00 00 00 00 00
  can0  00C   [8]  00 17 00 00 00 00 00 00
  can0  000   [8]  0C 17 00 00 00 00 00 00
  can0  00C   [8]  00 18 00 00 00 00 00 00
  can0  000   [8]  0C 18 00 00 00 00 00 00
  can0  00C   [8]  00 1D 00 00 00 00 00 00
  can0  000   [8]  0C 1D 00 00 00 00 80 3F
  can0  00C   [8]  00 1E 00 00 00 00 00 00
  can0  000   [8]  0C 1E 00 00 00 00 80 3F
  can0  00D   [8]  00 06 00 00 00 00 00 00
  can0  000   [8]  0D 06 00 00 80 46 1F 42
  can0  00D   [8]  00 08 00 00 00 00 00 00
  can0  000   [8]  0D 08 00 00 B8 70 17 42
  can0  00D   [8]  00 0A 00 00 00 00 00 00
  can0  000   [8]  0D 0A 00 00 38 0C 12 42
  can0  00D   [8]  00 0C 00 00 00 00 00 00
  can0  000   [8]  0D 0C 00 00 88 5E 2E 42
  can0  00D   [8]  00 11 00 00 00 00 00 00
  can0  000   [8]  0D 11 00 00 00 00 00 00
  can0  00D   [8]  00 12 00 00 00 00 00 00
  can0  000   [8]  0D 12 00 00 00 00 00 00
  can0  00D   [8]  00 15 00 00 00 00 00 00
  can0  000   [8]  0D 15 00 00 00 00 00 00
  can0  00D   [8]  00 16 00 00 00 00 00 00
  can0  000   [8]  0D 16 00 00 00 00 00 00
  can0  00D   [8]  00 1B 00 00 00 00 00 00
  can0  000   [8]  0D 1B 00 00 00 00 80 3F
  can0  00D   [8]  00 1C 00 00 00 00 00 00
  can0  000   [8]  0D 1C 00 00 00 00 80 3F
  can0  00D   [8]  00 07 00 00 00 00 00 00
  can0  000   [8]  0D 07 00 00 70 7B 1C 42
  can0  00D   [8]  00 09 00 00 00 00 00 00
  can0  000   [8]  0D 09 00 00 98 2D 1A 42
  can0  00D   [8]  00 0B 00 00 00 00 00 00
  can0  000   [8]  0D 0B 00 00 E0 8E 1B 42
  can0  000   [8]  22 06 00 00 00 C0 0C 42
  can0  000   [8]  22 07 00 00 00 00 06 42
  can0  000   [8]  22 11 00 00 8C 2E 5A 42
  can0  000   [8]  22 12 00 00 36 22 C3 41
  can0  000   [8]  22 13 00 00 FB 38 59 42
  can0  000   [8]  22 14 00 00 26 BD C3 41
  can0  000   [8]  22 15 00 00 36 22 C3 41
  can0  000   [8]  22 16 00 00 AD D8 1F 3E
  can0  000   [8]  22 17 00 00 D7 87 5A 42
  can0  000   [8]  22 18 00 00 90 A0 18 3E
  can0  000   [8]  22 21 00 00 90 A0 18 3E
  can0  000   [8]  22 2A 00 00 01 08 00 00
  can0  000   [8]  22 2B 00 00 01 18 00 00
  can0  00D   [8]  00 0D 00 00 00 00 00 00
  can0  000   [8]  0D 0D 00 00 C0 5B 33 42
  can0  00D   [8]  00 13 00 00 00 00 00 00
  can0  000   [8]  0D 13 00 00 00 00 00 00
  can0  00D   [8]  00 14 00 00 00 00 00 00
  can0  000   [8]  0D 14 00 00 00 00 00 00
  can0  00D   [8]  00 17 00 00 00 00 00 00
  can0  000   [8]  0D 17 00 00 00 00 00 00
  can0  00D   [8]  00 18 00 00 00 00 00 00
  can0  000   [8]  0D 18 00 00 00 00 00 00
  can0  00D   [8]  00 1D 00 00 00 00 00 00
  can0  000   [8]  0D 1D 00 00 00 00 80 3F
  can0  00D   [8]  00 1E 00 00 00 00 00 00
  can0  000   [8]  0D 1E 00 00 00 00 80 3F
  can0  00E   [8]  00 06 00 00 00 00 00 00
  can0  000   [8]  0E 06 00 00 38 0C 12 42
  can0  00E   [8]  00 08 00 00 00 00 00 00
  can0  000   [8]  0E 08 00 00 18 48 14 42
  can0  00E   [8]  00 0A 00 00 00 00 00 00
  can0  000   [8]  0E 0A 00 00 20 2E 15 42
  can0  00E   [8]  00 0C 00 00 00 00 00 00
  can0  000   [8]  0E 0C 00 00 98 8E FD 41
  can0  00E   [8]  00 11 00 00 00 00 00 00
  can0  000   [8]  0E 11 00 00 00 00 00 00
  can0  00E   [8]  00 12 00 00 00 00 00 00
  can0  000   [8]  0E 12 00 00 00 00 00 00
  can0  00E   [8]  00 15 00 00 00 00 00 00
  can0  000   [8]  0E 15 00 00 00 00 00 00
  can0  00E   [8]  00 16 00 00 00 00 00 00
  can0  000   [8]  0E 16 00 00 00 00 00 00
  can0  00E   [8]  00 1B 00 00 00 00 00 00
  can0  000   [8]  0E 1B 00 00 00 00 80 3F
  can0  00E   [8]  00 1C 00 00 00 00 00 00
  can0  000   [8]  0E 1C 00 00 00 00 80 3F
  can0  00E   [8]  00 07 00 00 00 00 00 00
  can0  000   [8]  0E 07 00 00 38 7E 12 42
  can0  00E   [8]  00 09 00 00 00 00 00 00
  can0  000   [8]  0E 09 00 00 C8 28 11 42
  can0  00E   [8]  00 0B 00 00 00 00 00 00
  can0  000   [8]  0E 0B 00 00 18 FE 07 42
  can0  00E   [8]  00 0D 00 00 00 00 00 00
  can0  000   [8]  0E 0D 00 00 22 D7 3C 42
  can0  00E   [8]  00 13 00 00 00 00 00 00
  can0  000   [8]  0E 13 00 00 00 00 00 00
  can0  00E   [8]  00 14 00 00 00 00 00 00
  can0  000   [8]  0E 14 00 00 00 00 00 00
  can0  00E   [8]  00 17 00 00 00 00 00 00
  can0  000   [8]  0E 17 00 00 00 00 00 00
  can0  00E   [8]  00 18 00 00 00 00 00 00
  can0  000   [8]  0E 18 00 00 00 00 00 00
  can0  00E   [8]  00 1D 00 00 00 00 00 00
  can0  000   [8]  0E 1D 00 00 00 00 80 3F
  can0  000   [8]  22 06 00 00 00 40 0D 42
  can0  000   [8]  22 07 00 00 00 40 06 42
  can0  000   [8]  22 11 00 00 DF 44 5A 42
  can0  000   [8]  22 12 00 00 46 87 C2 41
  can0  000   [8]  22 13 00 00 4E 4F 59 42
  can0  000   [8]  22 14 00 00 87 17 C4 41
  can0  000   [8]  22 15 00 00 46 87 C2 41
  can0  000   [8]  22 16 00 00 AD D8 1F 3E
  can0  000   [8]  22 17 00 00 D7 87 5A 42
  can0  000   [8]  22 18 00 00 9A 08 1B 3E
  can0  000   [8]  22 21 00 00 9A 08 1B 3E
  can0  000   [8]  22 2A 00 00 01 08 00 00
  can0  000   [8]  22 2B 00 00 01 18 00 00
  can0  00E   [8]  00 1E 00 00 00 00 00 00
  can0  000   [8]  0E 1E 00 00 00 00 80 3F
  can0  00F   [8]  00 06 00 00 00 00 00 00
  can0  000   [8]  0F 06 00 00 28 43 19 42
  can0  00F   [8]  00 08 00 00 00 00 00 00
  can0  000   [8]  0F 08 00 00 F8 DF 1D 42
  can0  00F   [8]  00 0A 00 00 00 00 00 00
  can0  000   [8]  0F 0A 00 00 E8 68 1D 42
  can0  00F   [8]  00 0C 00 00 00 00 00 00
  can0  000   [8]  0F 0C 00 00 4A F9 3A 42
  can0  00F   [8]  00 11 00 00 00 00 00 00
  can0  000   [8]  0F 11 00 00 00 00 00 00
  can0  00F   [8]  00 12 00 00 00 00 00 00
  can0  000   [8]  0F 12 00 00 00 00 00 00
  can0  00F   [8]  00 15 00 00 00 00 00 00
  can0  000   [8]  0F 15 00 00 00 00 00 00
  can0  00F   [8]  00 16 00 00 00 00 00 00
  can0  000   [8]  0F 16 00 00 00 00 00 00
  can0  00F   [8]  00 1B 00 00 00 00 00 00
  can0  000   [8]  0F 1B 00 00 00 00 80 3F
  can0  00F   [8]  00 1C 00 00 00 00 00 00
  can0  000   [8]  0F 1C 00 00 00 00 80 3F
  can0  00F   [8]  00 07 00 00 00 00 00 00
  can0  000   [8]  0F 07 00 00 98 2D 1A 42
  can0  00F   [8]  00 09 00 00 00 00 00 00
  can0  000   [8]  0F 09 00 00 B8 70 17 42
  can0  00F   [8]  00 0B 00 00 00 00 00 00
  can0  000   [8]  0F 0B 00 00 F8 DF 1D 42
  can0  00F   [8]  00 0D 00 00 00 00 00 00
  can0  000   [8]  0F 0D 00 00 48 8C 37 42
  can0  00F   [8]  00 13 00 00 00 00 00 00
  can0  000   [8]  0F 13 00 00 00 00 00 00
  can0  00F   [8]  00 14 00 00 00 00 00 00
  can0  000   [8]  0F 14 00 00 00 00 00 00
  can0  00F   [8]  00 17 00 00 00 00 00 00
  can0  000   [8]  0F 17 00 00 00 00 00 00
  can0  00F   [8]  00 18 00 00 00 00 00 00
  can0  000   [8]  0F 18 00 00 00 00 00 00
  can0  00F   [8]  00 1D 00 00 00 00 00 00
  can0  000   [8]  0F 1D 00 00 00 00 80 3F
  can0  00F   [8]  00 1E 00 00 00 00 00 00
  can0  000   [8]  0F 1E 00 00 00 00 80 3F
  can0  010   [8]  00 06 00 00 00 00 00 00
  can0  000   [8]  10 06 00 00 58 D5 13 42
  can0  010   [8]  00 08 00 00 00 00 00 00
  can0  000   [8]  10 08 00 00 F0 D4 0F 42
  can0  010   [8]  00 0A 00 00 00 00 00 00
  can0  000   [8]  10 0A 00 00 18 FE 07 42
  can0  010   [8]  00 0C 00 00 00 00 00 00
  can0  000   [8]  10 0C 00 00 88 95 FF 41
  can0  010   [8]  00 11 00 00 00 00 00 00
  can0  000   [8]  22 06 00 00 00 40 0C 42
  can0  000   [8]  22 07 00 00 00 00 07 42
  can0  000   [8]  22 11 00 00 DF 44 5A 42
  can0  000   [8]  22 12 00 00 AE 6F C3 41
  can0  000   [8]  22 13 00 00 A8 22 59 42
  can0  000   [8]  22 14 00 00 5A 31 C4 41
  can0  000   [8]  22 15 00 00 AE 6F C3 41
  can0  000   [8]  22 16 00 00 AD D8 1F 3E
  can0  000   [8]  22 17 00 00 32 5B 5A 42
  can0  000   [8]  22 18 00 00 86 38 16 3E
  can0  000   [8]  22 21 00 00 86 38 16 3E
  can0  000   [8]  22 2A 00 00 01 08 00 00
  can0  000   [8]  22 2B 00 00 01 18 00 00
  can0  000   [8]  10 11 00 00 00 00 00 00
  can0  010   [8]  00 12 00 00 00 00 00 00
  can0  000   [8]  10 12 00 00 00 00 00 00
  can0  010   [8]  00 15 00 00 00 00 00 00
  can0  000   [8]  10 15 00 00 00 00 00 00
  can0  010   [8]  00 16 00 00 00 00 00 00
  can0  000   [8]  10 16 00 00 00 00 00 00
  can0  010   [8]  00 1B 00 00 00 00 00 00
