  can0  00F   [8]  00 00 00 00 00 00 00 00
  can0  00F   [8]  00 20 00 00 00 00 00 00
  can0  00F   [8]  00 02 00 00 00 00 00 00
  can0  00F   [8]  00 03 00 00 00 00 80 00
  can0  010   [8]  00 01 00 00 00 00 00 00
  can0  010   [8]  00 00 00 00 00 00 00 00
  can0  010   [8]  00 20 00 00 00 00 00 00
  can0  010   [8]  00 02 00 00 00 00 00 00
  can0  010   [8]  00 03 00 00 00 00 80 00
  can0  011   [8]  00 01 00 00 00 00 00 00
  can0  011   [8]  00 00 00 00 00 00 00 00
  can0  000   [8]  22 06 00 00 00 00 0D 42
  can0  000   [8]  22 07 00 00 00 C0 07 42
  can0  000   [8]  22 11 00 00 8C 2E 5A 42
  can0  000   [8]  22 12 00 00 F1 48 C3 41
  can0  000   [8]  22 13 00 00 40 D5 59 42
  can0  000   [8]  22 14 00 00 F8 D6 C3 41
  can0  000   [8]  22 15 00 00 F1 48 C3 41
  can0  000   [8]  22 16 00 00 A3 70 1D 3E
  can0  000   [8]  22 17 00 00 32 5B 5A 42
  can0  000   [8]  22 18 00 00 C0 39 63 3E
  can0  000   [8]  22 21 00 00 C0 39 63 3E
  can0  000   [8]  22 2A 00 00 01 08 00 00
  can0  000   [8]  22 2B 00 00 01 18 00 00
  can0  011   [8]  00 20 00 00 00 00 00 00
  can0  011   [8]  00 02 00 00 00 00 00 00
  can0  011   [8]  00 03 00 00 00 00 80 00
  can0  00A   [8]  00 06 00 00 00 00 00 00
  can0  000   [8]  0A 06 00 00 98 FC 16 42
  can0  00A   [8]  00 08 00 00 00 00 00 00
  can0  000   [8]  0A 08 00 00 88 59 18 42
  can0  00A   [8]  00 0A 00 00 00 00 00 00
  can0  000   [8]  0A 0A 00 00 C0 82 0E 42
  can0  00A   [8]  00 0C 00 00 00 00 00 00
  can0  000   [8]  0A 0C 00 00 B8 DB C9 41
  can0  00A   [8]  00 11 00 00 00 00 00 00
  can0  000   [8]  0A 11 00 00 00 00 00 00
  can0  00A   [8]  00 12 00 00 00 00 00 00
  can0  000   [8]  0A 12 00 00 00 00 00 00
  can0  00A   [8]  00 15 00 00 00 00 00 00
  can0  000   [8]  0A 15 00 00 00 00 00 00
  can0  00A   [8]  00 16 00 00 00 00 00 00
  can0  000   [8]  0A 16 00 00 00 00 00 00
  can0  00A   [8]  00 1B 00 00 00 00 00 00
  can0  000   [8]  0A 1B 00 00 00 00 80 3F
  can0  00A   [8]  00 1C 00 00 00 00 00 00
  can0  000   [8]  0A 1C 00 00 00 00 80 3F
  can0  00A   [8]  00 07 00 00 00 00 00 00
  can0  000   [8]  0A 07 00 00 F8 14 16 42
  can0  00A   [8]  00 09 00 00 00 00 00 00
  can0  000   [8]  0A 09 00 00 18 48 14 42
  can0  00A   [8]  00 0B 00 00 00 00 00 00
  can0  000   [8]  0A 0B 00 00 E8 48 09 42
  can0  000   [8]  22 06 00 00 00 C0 0E 42
  can0  000   [8]  22 07 00 00 00 40 08 42
  can0  000   [8]  22 11 00 00 23 E1 5A 42
  can0  000   [8]  22 12 00 00 1F 2F C3 41
  can0  000   [8]  22 13 00 00 A8 22 59 42
  can0  000   [8]  22 14 00 00 6A 96 C3 41
  can0  000   [8]  22 15 00 00 1F 2F C3 41
  can0  000   [8]  22 16 00 00 AD D8 1F 3E
  can0  000   [8]  22 17 00 00 84 71 5A 42
  can0  000   [8]  22 18 00 00 68 00 0F 3E
  can0  000   [8]  22 21 00 00 68 00 0F 3E
  can0  000   [8]  22 2A 00 00 01 08 00 00
  can0  000   [8]  22 2B 00 00 01 18 00 00
  can0  00A   [8]  00 0D 00 00 00 00 00 00
  can0  000   [8]  0A 0D 00 00 E0 4C D1 41
  can0  00A   [8]  00 13 00 00 00 00 00 00
  can0  000   [8]  0A 13 00 00 00 00 00 00
  can0  00A   [8]  00 14 00 00 00 00 00 00
  can0  000   [8]  0A 14 00 00 00 00 00 00
  can0  00A   [8]  00 17 00 00 00 00 00 00
  can0  000   [8]  0A 17 00 00 00 00 00 00
  can0  00A   [8]  00 18 00 00 00 00 00 00
  can0  000   [8]  0A 18 00 00 00 00 00 00
  can0  00A   [8]  00 1D 00 00 00 00 00 00
  can0  000   [8]  0A 1D 00 00 00 00 80 3F
  can0  00A   [8]  00 1E 00 00 00 00 00 00
  can0  000   [8]  0A 1E 00 00 00 00 80 3F
  can0  00B   [8]  00 06 00 00 00 00 00 00
  can0  000   [8]  0B 06 00 00 18 48 14 42
  can0  00B   [8]  00 08 00 00 00 00 00 00
  can0  000   [8]  0B 08 00 00 00 E5 17 42
  can0  00B   [8]  00 0A 00 00 00 00 00 00
  can0  000   [8]  0B 0A 00 00 88 59 18 42
  can0  00B   [8]  00 0C 00 00 00 00 00 00
  can0  000   [8]  0B 0C 00 00 40 C1 F4 41
  can0  00B   [8]  00 11 00 00 00 00 00 00
  can0  000   [8]  0B 11 00 00 00 00 00 00
  can0  00B   [8]  00 12 00 00 00 00 00 00
  can0  000   [8]  0B 12 00 00 00 00 00 00
  can0  00B   [8]  00 15 00 00 00 00 00 00
  can0  000   [8]  0B 15 00 00 00 00 00 00
  can0  00B   [8]  00 16 00 00 00 00 00 00
  can0  000   [8]  0B 16 00 00 00 00 00 00
  can0  00B   [8]  00 1B 00 00 00 00 00 00
  can0  000   [8]  0B 1B 00 00 00 00 80 3F
  can0  00B   [8]  00 1C 00 00 00 00 00 00
  can0  000   [8]  0B 1C 00 00 00 00 80 3F
  can0  00B   [8]  00 07 00 00 00 00 00 00
  can0  000   [8]  0B 07 00 00 00 E5 17 42
  can0  00B   [8]  00 09 00 00 00 00 00 00
  can0  000   [8]  0B 09 00 00 28 43 19 42
  can0  00B   [8]  00 0B 00 00 00 00 00 00
  can0  000   [8]  0B 0B 00 00 40 04 0B 42
  can0  00B   [8]  00 0D 00 00 00 00 00 00
  can0  000   [8]  0B 0D 00 00 4E 92 34 42
  can0  00B   [8]  00 13 00 00 00 00 00 00
  can0  000   [8]  0B 13 00 00 00 00 00 00
  can0  00B   [8]  00 14 00 00 00 00 00 00
  can0  000   [8]  0B 14 00 00 00 00 00 00
  can0  00B   [8]  00 17 00 00 00 00 00 00
  can0  000   [8]  0B 17 00 00 00 00 00 00
  can0  00B   [8]  00 18 00 00 00 00 00 00
  can0  000   [8]  0B 18 00 00 00 00 00 00
  can0  000   [8]  22 06 00 00 00 00 10 42
  can0  000   [8]  22 07 00 00 00 00 09 42
  can0  000   [8]  22 11 00 00 84 71 5A 42
  can0  000   [8]  22 12 00 00 90 EE C2 41
  can0  000   [8]  22 13 00 00 4E 4F 59 42
  can0  000   [8]  22 14 00 00 F8 D6 C3 41
  can0  000   [8]  22 15 00 00 90 EE C2 41
  can0  000   [8]  22 16 00 00 A3 70 1D 3E
  can0  00B   [8]  00 1D 00 00 00 00 00 00
  can0  000   [8]  0B 1D 00 00 00 00 80 3F
  can0  000   [8]  22 17 00 00 D7 87 5A 42
  can0  000   [8]  22 18 00 00 68 00 0F 3E
  can0  000   [8]  22 21 00 00 68 00 0F 3E
  can0  000   [8]  22 2A 00 00 01 08 00 00
  can0  000   [8]  22 2B 00 00 01 18 00 00
  can0  00B   [8]  00 1E 00 00 00 00 00 00
  can0  000   [8]  0B 1E 00 00 00 00 80 3F
  can0  00C   [8]  00 06 00 00 00 00 00 00
  can0  000   [8]  0C 06 00 00 48 B8 19 42
  can0  00C   [8]  00 08 00 00 00 00 00 00
  can0  000   [8]  0C 08 00 00 F8 14 16 42
  can0  00C   [8]  00 0A 00 00 00 00 00 00
  can0  000   [8]  0C 0A 00 00 E8 48 09 42
  can0  00C   [8]  00 0C 00 00 00 00 00 00
  can0  000   [8]  0C 0C 00 00 E0 E6 30 42
  can0  00C   [8]  00 11 00 00 00 00 00 00
  can0  000   [8]  0C 11 00 00 00 00 00 00
  can0  00C   [8]  00 12 00 00 00 00 00 00
  can0  000   [8]  0C 12 00 00 00 00 00 00
  can0  00C   [8]  00 15 00 00 00 00 00 00
  can0  000   [8]  0C 15 00 00 00 00 00 00
  can0  00C   [8]  00 16 00 00 00 00 00 00
  can0  000   [8]  0C 16 00 00 00 00 00 00
  can0  00C   [8]  00 1B 00 00 00 00 00 00
  can0  000   [8]  0C 1B 00 00 00 00 80 3F
  can0  00C   [8]  00 1C 00 00 00 00 00 00
  can0  000   [8]  0C 1C 00 00 00 00 80 3F
  can0  00C   [8]  00 07 00 00 00 00 00 00
  can0  000   [8]  0C 07 00 00 88 59 18 42
  can0  00C   [8]  00 09 00 00 00 00 00 00
  can0  000   [8]  0C 09 00 00 50 B7 10 42
  can0  00C   [8]  00 0B 00 00 00 00 00 00
  can0  000   [8]  0C 0B 00 00 68 52 0C 42
  can0  00C   [8]  00 0D 00 00 00 00 00 00
  can0  000   [8]  0C 0D 00 00 68 85 E6 41
  can0  00C   [8]  00 13 00 00 00 00 00 00
  can0  000   [8]  0C 13 00 00 00 00 00 00
  can0  00C   [8]  00 14 00 00 00 00 00 00
  can0  000   [8]  0C 14 00 00 00 00 00 00
  can0  00C   [8]  00 17 00 00 00 00 00 00
  can0  000   [8]  0C 17 00 00 00 00 00 00
  can0  00C   [8]  00 18 00 00 00 00 00 00
  can0  000   [8]  0C 18 00 00 00 00 00 00
  can0  00C   [8]  00 1D 00 00 00 00 00 00
  can0  000   [8]  0C 1D 00 00 00 00 80 3F
  can0  00C   [8]  00 1E 00 00 00 00 00 00
  can0  000   [8]  0C 1E 00 00 00 00 80 3F
  can0  00D   [8]  00 06 00 00 00 00 00 00
  can0  000   [8]  0D 06 00 00 E8 18 1B 42
  can0  00D   [8]  00 08 00 00 00 00 00 00
  can0  000   [8]  0D 08 00 00 68 F0 12 42
  can0  00D   [8]  00 0A 00 00 00 00 00 00
  can0  000   [8]  0D 0A 00 00 C0 82 0E 42
  can0  00D   [8]  00 0C 00 00 00 00 00 00
  can0  000   [8]  22 06 00 00 00 80 0D 42
  can0  000   [8]  22 07 00 00 00 80 09 42
  can0  000   [8]  22 11 00 00 84 71 5A 42
  can0  000   [8]  22 12 00 00 7A FB C2 41
  can0  000   [8]  22 13 00 00 47 92 59 42
  can0  000   [8]  22 14 00 00 CB F0 C3 41
  can0  000   [8]  0D 0C 00 00 14 E2 23 42
  can0  000   [8]  22 15 00 00 7A FB C2 41
  can0  000   [8]  22 16 00 00 A3 70 1D 3E
  can0  000   [8]  22 17 00 00 D0 CA 5A 42
  can0  000   [8]  22 18 00 00 72 68 11 3E
  can0  000   [8]  22 21 00 00 72 68 11 3E
  can0  000   [8]  22 2A 00 00 01 08 00 00
  can0  000   [8]  22 2B 00 00 01 18 00 00
  can0  00D   [8]  00 11 00 00 00 00 00 00
  can0  000   [8]  0D 11 00 00 00 00 00 00
  can0  00D   [8]  00 12 00 00 00 00 00 00
  can0  000   [8]  0D 12 00 00 00 00 00 00
  can0  00D   [8]  00 15 00 00 00 00 00 00
  can0  000   [8]  0D 15 00 00 00 00 00 00
  can0  00D   [8]  00 16 00 00 00 00 00 00
  can0  000   [8]  0D 16 00 00 00 00 00 00
  can0  00D   [8]  00 1B 00 00 00 00 00 00
  can0  000   [8]  0D 1B 00 00 00 00 80 3F
  can0  00D   [8]  00 1C 00 00 00 00 00 00
  can0  000   [8]  0D 1C 00 00 00 00 80 3F
  can0  00D   [8]  00 07 00 00 00 00 00 00
  can0  000   [8]  0D 07 00 00 E8 18 1B 42
  can0  00D   [8]  00 09 00 00 00 00 00 00
  can0  000   [8]  0D 09 00 00 00 E5 17 42
  can0  00D   [8]  00 0B 00 00 00 00 00 00
  can0  000   [8]  0D 0B 00 00 28 43 19 42
  can0  00D   [8]  00 0D 00 00 00 00 00 00
  can0  000   [8]  0D 0D 00 00 38 3D 25 42
  can0  00D   [8]  00 13 00 00 00 00 00 00
  can0  000   [8]  0D 13 00 00 00 00 00 00
  can0  00D   [8]  00 14 00 00 00 00 00 00
  can0  000   [8]  0D 14 00 00 00 00 00 00
  can0  00D   [8]  00 17 00 00 00 00 00 00
  can0  000   [8]  0D 17 00 00 00 00 00 00
  can0  00D   [8]  00 18 00 00 00 00 00 00
  can0  000   [8]  0D 18 00 00 00 00 00 00
  can0  00D   [8]  00 1D 00 00 00 00 00 00
  can0  000   [8]  0D 1D 00 00 00 00 80 3F
  can0  00D   [8]  00 1E 00 00 00 00 00 00
  can0  000   [8]  0D 1E 00 00 00 00 80 3F
  can0  00E   [8]  00 06 00 00 00 00 00 00
  can0  000   [8]  0E 06 00 00 98 FC 16 42
  can0  00E   [8]  00 08 00 00 00 00 00 00
  can0  000   [8]  0E 08 00 00 38 CE 18 42
  can0  00E   [8]  00 0A 00 00 00 00 00 00
  can0  000   [8]  0E 0A 00 00 20 2E 15 42
  can0  00E   [8]  00 0C 00 00 00 00 00 00
  can0  000   [8]  0E 0C 00 00 90 1B F4 41
  can0  00E   [8]  00 11 00 00 00 00 00 00
  can0  000   [8]  0E 11 00 00 00 00 00 00
  can0  00E   [8]  00 12 00 00 00 00 00 00
  can0  000   [8]  0E 12 00 00 00 00 00 00
  can0  00E   [8]  00 15 00 00 00 00 00 00
  can0  000   [8]  0E 15 00 00 00 00 00 00
  can0  00E   [8]  00 16 00 00 00 00 00 00
  can0  000   [8]  0E 16 00 00 00 00 00 00
  can0  00E   [8]  00 1B 00 00 00 00 00 00
  can0  000   [8]  0E 1B 00 00 00 00 80 3F
  can0  00E   [8]  00 1C 00 00 00 00 00 00
  can0  000   [8]  0E 1C 00 00 00 00 80 3F
  can0  000   [8]  22 06 00 00 00 C0 0D 42
  can0  000   [8]  22 07 00 00 00 00 0B 42
  can0  000   [8]  22 11 00 00 39 18 5A 42
  can0  000   [8]  22 12 00 00 7A FB C2 41
  can0  000   [8]  22 13 00 00 93 EB 59 42
  can0  000   [8]  22 14 00 00 0F CA C3 41
  can0  000   [8]  22 15 00 00 7A FB C2 41
  can0  000   [8]  22 16 00 00 AD D8 1F 3E
  can0  000   [8]  22 17 00 00 D7 87 5A 42
  can0  000   [8]  22 18 00 00 68 00 0F 3E
  can0  000   [8]  22 21 00 00 68 00 0F 3E
  can0  00E   [8]  00 07 00 00 00 00 00 00
  can0  000   [8]  22 2A 00 00 01 08 00 00
  can0  000   [8]  0E 07 00 00 F8 14 16 42
  can0  000   [8]  22 2B 00 00 01 18 00 00
  can0  00E   [8]  00 09 00 00 00 00 00 00
  can0  000   [8]  0E 09 00 00 58 D5 13 42
  can0  00E   [8]  00 0B 00 00 00 00 00 00
  can0  000   [8]  0E 0B 00 00 18 FE 07 42
  can0  00E   [8]  00 0D 00 00 00 00 00 00
  can0  000   [8]  0E 0D 00 00 5C 55 29 42
  can0  00E   [8]  00 13 00 00 00 00 00 00
  can0  000   [8]  0E 13 00 00 00 00 00 00
  can0  00E   [8]  00 14 00 00 00 00 00 00
  can0  000   [8]  0E 14 00 00 00 00 00 00
  can0  00E   [8]  00 17 00 00 00 00 00 00
  can0  000   [8]  0E 17 00 00 00 00 00 00
  can0  00E   [8]  00 18 00 00 00 00 00 00
  can0  000   [8]  0E 18 00 00 00 00 00 00
  can0  00E   [8]  00 1D 00 00 00 00 00 00
  can0  000   [8]  0E 1D 00 00 00 00 80 3F
  can0  00E   [8]  00 1E 00 00 00 00 00 00
  can0  000   [8]  0E 1E 00 00 00 00 80 3F
  can0  00F   [8]  00 06 00 00 00 00 00 00
  can0  000   [8]  0F 06 00 00 88 59 18 42
  can0  00F   [8]  00 08 00 00 00 00 00 00
  can0  000   [8]  0F 08 00 00 70 7B 1C 42
  can0  00F   [8]  00 0A 00 00 00 00 00 00
  can0  000   [8]  0F 0A 00 00 E0 8E 1B 42
  can0  00F   [8]  00 0C 00 00 00 00 00 00
  can0  000   [8]  0F 0C 00 00 C0 BC 2F 42
  can0  00F   [8]  00 11 00 00 00 00 00 00
  can0  000   [8]  0F 11 00 00 00 00 00 00
  can0  00F   [8]  00 12 00 00 00 00 00 00
  can0  000   [8]  0F 12 00 00 00 00 00 00
  can0  00F   [8]  00 15 00 00 00 00 00 00
  can0  000   [8]  0F 15 00 00 00 00 00 00
  can0  00F   [8]  00 16 00 00 00 00 00 00
  can0  000   [8]  0F 16 00 00 00 00 00 00
  can0  00F   [8]  00 1B 00 00 00 00 00 00
  can0  000   [8]  0F 1B 00 00 00 00 80 3F
  can0  00F   [8]  00 1C 00 00 00 00 00 00
  can0  000   [8]  0F 1C 00 00 00 00 80 3F
  can0  00F   [8]  00 07 00 00 00 00 00 00
  can0  000   [8]  0F 07 00 00 98 FC 16 42
  can0  00F   [8]  00 09 00 00 00 00 00 00
  can0  000   [8]  0F 09 00 00 C8 62 13 42
  can0  00F   [8]  00 0B 00 00 00 00 00 00
  can0  000   [8]  0F 0B 00 00 10 05 1C 42
  can0  00F   [8]  00 0D 00 00 00 00 00 00
  can0  000   [8]  0F 0D 00 00 8C 16 2A 42
  can0  00F   [8]  00 13 00 00 00 00 00 00
  can0  000   [8]  0F 13 00 00 00 00 00 00
  can0  00F   [8]  00 14 00 00 00 00 00 00
  can0  000   [8]  22 06 00 00 00 C0 0D 42
  can0  000   [8]  22 07 00 00 00 00 09 42
  can0  000   [8]  22 11 00 00 39 18 5A 42
  can0  000   [8]  22 12 00 00 4D 15 C3 41
  can0  000   [8]  22 13 00 00 E6 01 5A 42
  can0  000   [8]  22 14 00 00 0F CA C3 41
  can0  000   [8]  22 15 00 00 4D 15 C3 41
  can0  000   [8]  22 16 00 00 A3 70 1D 3E
  can0  000   [8]  22 17 00 00 23 E1 5A 42
  can0  000   [8]  22 18 00 00 5F 98 0C 3E
  can0  000   [8]  22 21 00 00 5F 98 0C 3E
  can0  000   [8]  22 2A 00 00 01 08 00 00
  can0  000   [8]  22 2B 00 00 01 18 00 00
  can0  000   [8]  0F 14 00 00 00 00 00 00
  can0  00F   [8]  00 17 00 00 00 00 00 00
  can0  000   [8]  0F 17 00 00 00 00 00 00
  can0  00F   [8]  00 18 00 00 00 00 00 00
  can0  000   [8]  0F 18 00 00 00 00 00 00
  can0  00F   [8]  00 1D 00 00 00 00 00 00
  can0  000   [8]  0F 1D 00 00 00 00 80 3F
  can0  00F   [8]  00 1E 00 00 00 00 00 00
  can0  000   [8]  0F 1E 00 00 00 00 80 3F
  can0  010   [8]  00 06 00 00 00 00 00 00
  can0  000   [8]  10 06 00 00 18 48 14 42
  can0  010   [8]  00 08 00 00 00 00 00 00
  can0  000   [8]  10 08 00 00 10 46 10 42
  can0  010   [8]  00 0A 00 00 00 00 00 00
  can0  000   [8]  10 0A 00 00 48 22 07 42
  can0  010   [8]  00 0C 00 00 00 00 00 00
  can0  000   [8]  10 0C 00 00 18 E1 FD 41
  can0  010   [8]  00 11 00 00 00 00 00 00
  can0  000   [8]  10 11 00 00 00 00 00 00
  can0  010   [8]  00 12 00 00 00 00 00 00
  can0  000   [8]  10 12 00 00 00 00 00 00
  can0  010   [8]  00 15 00 00 00 00 00 00
  can0  000   [8]  10 15 00 00 00 00 00 00
  can0  010   [8]  00 16 00 00 00 00 00 00
  can0  000   [8]  10 16 00 00 00 00 00 00
  can0  010   [8]  00 1B 00 00 00 00 00 00
  can0  000   [8]  10 1B 00 00 00 00 80 3F
  can0  010   [8]  00 1C 00 00 00 00 00 00
  can0  000   [8]  10 1C 00 00 00 00 80 3F
  can0  010   [8]  00 07 00 00 00 00 00 00
  can0  000   [8]  10 07 00 00 40 04 0B 42
  can0  010   [8]  00 09 00 00 00 00 00 00
  can0  000   [8]  10 09 00 00 E0 E2 0B 42
  can0  010   [8]  00 0B 00 00 00 00 00 00
  can0  000   [8]  10 0B 00 00 18 FE 07 42
  can0  010   [8]  00 0D 00 00 00 00 00 00
  can0  000   [8]  10 0D 00 00 C0 50 00 42
  can0  010   [8]  00 13 00 00 00 00 00 00
  can0  000   [8]  10 13 00 00 00 00 00 00
  can0  010   [8]  00 14 00 00 00 00 00 00
  can0  000   [8]  10 14 00 00 00 00 00 00
  can0  010   [8]  00 17 00 00 00 00 00 00
  can0  000   [8]  10 17 00 00 00 00 00 00
  can0  010   [8]  00 18 00 00 00 00 00 00
  can0  000   [8]  10 18 00 00 00 00 00 00
  can0  010   [8]  00 1D 00 00 00 00 00 00
  can0  000   [8]  10 1D 00 00 00 00 80 3F
  can0  010   [8]  00 1E 00 00 00 00 00 00
  can0  000   [8]  10 1E 00 00 00 00 80 3F
  can0  011   [8]  00 06 00 00 00 00 00 00
  can0  000   [8]  11 06 00 00 78 A1 15 42
  can0  011   [8]  00 08 00 00 00 00 00 00
  can0  000   [8]  11 08 00 00 00 E5 17 42
  can0  000   [8]  22 06 00 00 00 00 0E 42
  can0  000   [8]  22 07 00 00 00 C0 09 42
  can0  000   [8]  22 11 00 00 2A 9E 5A 42
  can0  000   [8]  22 12 00 00 63 08 C3 41
  can0  000   [8]  22 13 00 00 40 D5 59 42
  can0  000   [8]  22 14 00 00 B4 FD C3 41
  can0  000   [8]  22 15 00 00 63 08 C3 41
  can0  000   [8]  22 16 00 00 A3 70 1D 3E
  can0  000   [8]  22 17 00 00 D0 CA 5A 42
  can0  000   [8]  22 18 00 00 68 00 0F 3E
  can0  000   [8]  22 21 00 00 68 00 0F 3E
  can0  000   [8]  22 2A 00 00 01 08 00 00
  can0  000   [8]  22 2B 00 00 01 18 00 00
  can0  011   [8]  00 0A 00 00 00 00 00 00
  can0  000   [8]  11 0A 00 00 68 52 0C 42
  can0  011   [8]  00 0C 00 00 00 00 00 00
  can0  000   [8]  11 0C 00 00 1C B7 38 42
  can0  011   [8]  00 11 00 00 00 00 00 00
  can0  000   [8]  11 11 00 00 00 00 00 00
  can0  011   [8]  00 12 00 00 00 00 00 00
  can0  000   [8]  11 12 00 00 00 00 00 00
  can0  011   [8]  00 15 00 00 00 00 00 00
  can0  000   [8]  11 15 00 00 00 00 00 00
  can0  011   [8]  00 16 00 00 00 00 00 00
  can0  000   [8]  11 16 00 00 00 00 00 00
  can0  011   [8]  00 1B 00 00 00 00 00 00
  can0  000   [8]  11 1B 00 00 00 00 80 3F
  can0  011   [8]  00 1C 00 00 00 00 00 00
  can0  000   [8]  11 1C 00 00 00 00 80 3F
  can0  011   [8]  00 07 00 00 00 00 00 00
  can0  000   [8]  11 07 00 00 38 7E 12 42
  can0  011   [8]  00 09 00 00 00 00 00 00
  can0  000   [8]  11 09 00 00 88 59 18 42
  can0  011   [8]  00 0B 00 00 00 00 00 00
  can0  000   [8]  11 0B 00 00 08 32 0D 42
  can0  011   [8]  00 0D 00 00 00 00 00 00
  can0  000   [8]  11 0D 00 00 C8 FA F9 41
  can0  011   [8]  00 13 00 00 00 00 00 00
  can0  000   [8]  11 13 00 00 00 00 00 00
  can0  011   [8]  00 14 00 00 00 00 00 00
  can0  000   [8]  11 14 00 00 00 00 00 00
  can0  011   [8]  00 17 00 00 00 00 00 00
  can0  000   [8]  11 17 00 00 00 00 00 00
  can0  011   [8]  00 18 00 00 00 00 00 00
  can0  000   [8]  11 18 00 00 00 00 00 00
  can0  011   [8]  00 1D 00 00 00 00 00 00
  can0  000   [8]  11 1D 00 00 00 00 80 3F
  can0  011   [8]  00 1E 00 00 00 00 00 00
  can0  000   [8]  11 1E 00 00 00 00 80 3F
  can0  000   [8]  22 06 00 00 00 40 0D 42
  can0  000   [8]  22 07 00 00 00 00 09 42
  can0  000   [8]  22 11 00 00 7D B4 5A 42
  can0  000   [8]  22 12 00 00 90 EE C2 41
  can0  000   [8]  22 13 00 00 4E 4F 59 42
  can0  000   [8]  22 14 00 00 E1 E3 C3 41
  can0  000   [8]  22 15 00 00 90 EE C2 41
  can0  000   [8]  22 16 00 00 AD D8 1F 3E
  can0  000   [8]  22 17 00 00 D7 87 5A 42
  can0  000   [8]  22 18 00 00 5F 98 0C 3E
  can0  000   [8]  22 21 00 00 5F 98 0C 3E
  can0  000   [8]  22 2A 00 00 01 08 00 00
  can0  000   [8]  22 2B 00 00 01 18 00 00
  can0  000   [8]  22 06 00 00 00 40 0E 42
  can0  000   [8]  22 07 00 00 00 80 07 42
  can0  000   [8]  22 11 00 00 84 71 5A 42
  can0  000   [8]  22 12 00 00 EC BA C2 41
  can0  000   [8]  22 13 00 00 FB 38 59 42
  can0  000   [8]  22 14 00 00 F8 D6 C3 41
  can0  000   [8]  22 15 00 00 EC BA C2 41
  can0  000   [8]  22 16 00 00 AD D8 1F 3E
  can0  000   [8]  22 17 00 00 8C 2E 5A 42
  can0  000   [8]  22 18 00 00 68 00 0F 3E
  can0  000   [8]  22 21 00 00 68 00 0F 3E
  can0  000   [8]  22 2A 00 00 01 08 00 00
  can0  000   [8]  22 2B 00 00 01 18 00 00
  can0  000   [8]  22 2B 00 00 01 18 00 00
  can0  00A   [8]  00 08 00 00 00 00 00 00
  can0  000   [8]  0A 08 00 00 78 73 0B 42
  can0  00A   [8]  00 0A 00 00 00 00 00 00
  can0  000   [8]  0A 0A 00 00 E0 E2 0B 42
  can0  00A   [8]  00 0C 00 00 00 00 00 00
  can0  000   [8]  0A 0C 00 00 08 90 C8 41
  can0  00A   [8]  00 11 00 00 00 00 00 00
  can0  000   [8]  0A 11 00 00 00 00 00 00
  can0  00A   [8]  00 12 00 00 00 00 00 00
  can0  000   [8]  0A 12 00 00 00 00 00 00
  can0  00A   [8]  00 15 00 00 00 00 00 00
  can0  000   [8]  0A 15 00 00 00 00 00 00
  can0  00A   [8]  00 16 00 00 00 00 00 00
  can0  000   [8]  0A 16 00 00 00 00 00 00
  can0  00A   [8]  00 1B 00 00 00 00 00 00
  can0  000   [8]  0A 1B 00 00 00 00 80 3F
  can0  00A   [8]  00 1C 00 00 00 00 00 00
  can0  000   [8]  0A 1C 00 00 00 00 80 3F
  can0  00A   [8]  00 07 00 00 00 00 00 00
  can0  000   [8]  0A 07 00 00 A0 B4 06 42
  can0  00A   [8]  00 09 00 00 00 00 00 00
  can0  000   [8]  0A 09 00 00 80 92 04 42
  can0  00A   [8]  00 0B 00 00 00 00 00 00
  can0  000   [8]  0A 0B 00 00 C0 D9 05 42
  can0  00A   [8]  00 0D 00 00 00 00 00 00
  can0  000   [8]  0A 0D 00 00 48 EB CD 41
  can0  00A   [8]  00 13 00 00 00 00 00 00
  can0  000   [8]  0A 13 00 00 00 00 00 00
  can0  00A   [8]  00 14 00 00 00 00 00 00
  can0  000   [8]  0A 14 00 00 00 00 00 00
  can0  00A   [8]  00 17 00 00 00 00 00 00
  can0  000   [8]  0A 17 00 00 00 00 00 00
  can0  00A   [8]  00 18 00 00 00 00 00 00
  can0  000   [8]  0A 18 00 00 00 00 00 00
  can0  00A   [8]  00 1D 00 00 00 00 00 00
  can0  000   [8]  0A 1D 00 00 00 00 80 3F
  can0  00A   [8]  00 1E 00 00 00 00 00 00
  can0  000   [8]  0A 1E 00 00 00 00 80 3F
  can0  00B   [8]  00 06 00 00 00 00 00 00
  can0  000   [8]  0B 06 00 00 18 47 06 42
  can0  00B   [8]  00 08 00 00 00 00 00 00
  can0  000   [8]  0B 08 00 00 80 B7 09 42
  can0  00B   [8]  00 0A 00 00 00 00 00 00
  can0  000   [8]  0B 0A 00 00 20 2E 15 42
  can0  00B   [8]  00 0C 00 00 00 00 00 00
  can0  000   [8]  0B 0C 00 00 90 1B F4 41
  can0  00B   [8]  00 11 00 00 00 00 00 00
  can0  000   [8]  0B 11 00 00 00 00 00 00
  can0  00B   [8]  00 12 00 00 00 00 00 00
  can0  000   [8]  22 06 00 00 00 00 05 42
  can0  000   [8]  22 07 00 00 00 80 FC 41
  can0  000   [8]  22 11 00 00 93 EB 59 42
  can0  000   [8]  22 12 00 00 4D 15 C3 41
  can0  000   [8]  22 13 00 00 F4 7B 59 42
  can0  000   [8]  22 14 00 00 CB F0 C3 41
  can0  000   [8]  22 15 00 00 4D 15 C3 41
  can0  000   [8]  22 16 00 00 A3 70 1D 3E
  can0  000   [8]  22 17 00 00 84 71 5A 42
  can0  000   [8]  22 18 00 00 72 68 11 3E
  can0  000   [8]  22 21 00 00 72 68 11 3E
  can0  000   [8]  22 2A 00 00 01 08 00 00
  can0  000   [8]  22 2B 00 00 01 18 00 00
  can0  000   [8]  0B 12 00 00 00 00 00 00
  can0  00B   [8]  00 15 00 00 00 00 00 00
  can0  000   [8]  0B 15 00 00 00 00 00 00
  can0  00B   [8]  00 16 00 00 00 00 00 00
  can0  000   [8]  0B 16 00 00 00 00 00 00
  can0  00B   [8]  00 1B 00 00 00 00 00 00
  can0  000   [8]  0B 1B 00 00 00 00 80 3F
  can0  00B   [8]  00 1C 00 00 00 00 00 00
  can0  000   [8]  0B 1C 00 00 00 00 80 3F
  can0  00B   [8]  00 07 00 00 00 00 00 00
  can0  000   [8]  0B 07 00 00 E0 E2 0B 42
  can0  00B   [8]  00 09 00 00 00 00 00 00
  can0  000   [8]  0B 09 00 00 18 A2 0D 42
  can0  00B   [8]  00 0B 00 00 00 00 00 00
  can0  000   [8]  0B 0B 00 00 80 DA 08 42
  can0  00B   [8]  00 0D 00 00 00 00 00 00
  can0  000   [8]  0B 0D 00 00 74 DD 31 42
  can0  00B   [8]  00 13 00 00 00 00 00 00
  can0  000   [8]  0B 13 00 00 00 00 00 00
  can0  00B   [8]  00 14 00 00 00 00 00 00
  can0  000   [8]  0B 14 00 00 00 00 00 00
  can0  00B   [8]  00 17 00 00 00 00 00 00
  can0  000   [8]  0B 17 00 00 00 00 00 00
  can0  00B   [8]  00 18 00 00 00 00 00 00
  can0  000   [8]  0B 18 00 00 00 00 00 00
  can0  00B   [8]  00 1D 00 00 00 00 00 00
  can0  000   [8]  0B 1D 00 00 00 00 80 3F
  can0  00B   [8]  00 1E 00 00 00 00 00 00
  can0  000   [8]  0B 1E 00 00 00 00 80 3F
  can0  00C   [8]  00 06 00 00 00 00 00 00
  can0  000   [8]  0C 06 00 00 50 B7 10 42
  can0  00C   [8]  00 08 00 00 00 00 00 00
  can0  000   [8]  0C 08 00 00 28 C2 0C 42
  can0  00C   [8]  00 0A 00 00 00 00 00 00
  can0  000   [8]  0C 0A 00 00 18 90 07 42
  can0  00C   [8]  00 0C 00 00 00 00 00 00
  can0  000   [8]  0C 0C 00 00 A8 3B 2C 42
  can0  00C   [8]  00 11 00 00 00 00 00 00
  can0  000   [8]  0C 11 00 00 00 00 00 00
  can0  00C   [8]  00 12 00 00 00 00 00 00
  can0  000   [8]  0C 12 00 00 00 00 00 00
  can0  00C   [8]  00 15 00 00 00 00 00 00
  can0  000   [8]  0C 15 00 00 00 00 00 00
  can0  00C   [8]  00 16 00 00 00 00 00 00
  can0  000   [8]  0C 16 00 00 00 00 00 00
  can0  00C   [8]  00 1B 00 00 00 00 00 00
  can0  000   [8]  0C 1B 00 00 00 00 80 3F
  can0  00C   [8]  00 1C 00 00 00 00 00 00
  can0  000   [8]  0C 1C 00 00 00 00 80 3F
  can0  00C   [8]  00 07 00 00 00 00 00 00
  can0  000   [8]  0C 07 00 00 40 04 0B 42
  can0  00C   [8]  00 09 00 00 00 00 00 00
  can0  000   [8]  0C 09 00 00 38 E0 02 42
  can0  000   [8]  22 06 00 00 00 80 04 42
  can0  000   [8]  22 07 00 00 00 00 FC 41
  can0  000   [8]  22 11 00 00 DF 44 5A 42
  can0  000   [8]  22 12 00 00 A7 E1 C2 41
  can0  000   [8]  22 13 00 00 A1 65 59 42
  can0  000   [8]  22 14 00 00 26 BD C3 41
  can0  000   [8]  22 15 00 00 A7 E1 C2 41
  can0  000   [8]  22 16 00 00 A3 70 1D 3E
  can0  000   [8]  22 17 00 00 D7 87 5A 42
  can0  00C   [8]  00 0B 00 00 00 00 00 00
  can0  000   [8]  0C 0B 00 00 80 B7 09 42
  can0  000   [8]  22 18 00 00 72 68 11 3E
  can0  000   [8]  22 21 00 00 72 68 11 3E
  can0  000   [8]  22 2A 00 00 01 08 00 00
  can0  000   [8]  22 2B 00 00 01 18 00 00
  can0  00C   [8]  00 0D 00 00 00 00 00 00
  can0  000   [8]  0C 0D 00 00 00 1E E3 41
  can0  00C   [8]  00 13 00 00 00 00 00 00
  can0  000   [8]  0C 13 00 00 00 00 00 00
  can0  00C   [8]  00 14 00 00 00 00 00 00
  can0  000   [8]  0C 14 00 00 00 00 00 00
  can0  00C   [8]  00 17 00 00 00 00 00 00
  can0  000   [8]  0C 17 00 00 00 00 00 00
  can0  00C   [8]  00 18 00 00 00 00 00 00
  can0  000   [8]  0C 18 00 00 00 00 00 00
  can0  00C   [8]  00 1D 00 00 00 00 00 00
  can0  000   [8]  0C 1D 00 00 00 00 80 3F
  can0  00C   [8]  00 1E 00 00 00 00 00 00
  can0  000   [8]  0C 1E 00 00 00 00 80 3F
  can0  00D   [8]  00 06 00 00 00 00 00 00
  can0  000   [8]  0D 06 00 00 18 48 14 42
  can0  00D   [8]  00 08 00 00 00 00 00 00
  can0  000   [8]  0D 08 00 00 28 C2 0C 42
  can0  00D   [8]  00 0A 00 00 00 00 00 00
  can0  000   [8]  0D 0A 00 00 28 C2 0C 42
  can0  00D   [8]  00 0C 00 00 00 00 00 00
  can0  000   [8]  0D 0C 00 00 08 C2 1D 42
  can0  00D   [8]  00 11 00 00 00 00 00 00
  can0  000   [8]  0D 11 00 00 00 00 00 00
  can0  00D   [8]  00 12 00 00 00 00 00 00
  can0  000   [8]  0D 12 00 00 00 00 00 00
  can0  00D   [8]  00 15 00 00 00 00 00 00
  can0  000   [8]  0D 15 00 00 00 00 00 00
  can0  00D   [8]  00 16 00 00 00 00 00 00
  can0  000   [8]  0D 16 00 00 00 00 00 00
  can0  00D   [8]  00 1B 00 00 00 00 00 00
  can0  000   [8]  0D 1B 00 00 00 00 80 3F
  can0  00D   [8]  00 1C 00 00 00 00 00 00
  can0  000   [8]  0D 1C 00 00 00 00 80 3F
  can0  00D   [8]  00 07 00 00 00 00 00 00
  can0  000   [8]  0D 07 00 00 68 9A 11 42
  can0  00D   [8]  00 09 00 00 00 00 00 00
  can0  000   [8]  0D 09 00 00 50 F3 0E 42
  can0  00D   [8]  00 0B 00 00 00 00 00 00
  can0  000   [8]  0D 0B 00 00 98 FC 16 42
  can0  00D   [8]  00 0D 00 00 00 00 00 00
  can0  000   [8]  0D 0D 00 00 30 28 23 42
  can0  00D   [8]  00 13 00 00 00 00 00 00
  can0  000   [8]  0D 13 00 00 00 00 00 00
  can0  00D   [8]  00 14 00 00 00 00 00 00
  can0  000   [8]  0D 14 00 00 00 00 00 00
  can0  00D   [8]  00 17 00 00 00 00 00 00
  can0  000   [8]  0D 17 00 00 00 00 00 00
  can0  00D   [8]  00 18 00 00 00 00 00 00
  can0  000   [8]  0D 18 00 00 00 00 00 00
  can0  000   [8]  22 06 00 00 00 C0 02 42
  can0  000   [8]  22 07 00 00 00 00 F9 41
  can0  000   [8]  22 11 00 00 84 71 5A 42
  can0  000   [8]  22 12 00 00 A7 E1 C2 41
  can0  000   [8]  22 13 00 00 47 92 59 42
  can0  000   [8]  22 14 00 00 6D DB C5 41
  can0  000   [8]  22 15 00 00 A7 E1 C2 41
  can0  000   [8]  22 16 00 00 A3 70 1D 3E
  can0  000   [8]  22 17 00 00 7D B4 5A 42
  can0  000   [8]  22 18 00 00 72 68 11 3E
  can0  000   [8]  22 21 00 00 72 68 11 3E
  can0  000   [8]  22 2A 00 00 01 08 00 00
  can0  000   [8]  22 2B 00 00 01 18 00 00
  can0  00D   [8]  00 1D 00 00 00 00 00 00
  can0  000   [8]  0D 1D 00 00 00 00 80 3F
  can0  00D   [8]  00 1E 00 00 00 00 00 00
  can0  000   [8]  0D 1E 00 00 00 00 80 3F
  can0  00E   [8]  00 06 00 00 00 00 00 00
  can0  000   [8]  0E 06 00 00 80 DA 08 42
  can0  00E   [8]  00 08 00 00 00 00 00 00
  can0  000   [8]  0E 08 00 00 40 04 0B 42
  can0  00E   [8]  00 0A 00 00 00 00 00 00
  can0  000   [8]  0E 0A 00 00 C8 28 11 42
  can0  00E   [8]  00 0C 00 00 00 00 00 00
  can0  000   [8]  0E 0C 00 00 E8 1F F5 41
  can0  00E   [8]  00 11 00 00 00 00 00 00
  can0  000   [8]  0E 11 00 00 00 00 00 00
  can0  00E   [8]  00 12 00 00 00 00 00 00
  can0  000   [8]  0E 12 00 00 00 00 00 00
  can0  00E   [8]  00 15 00 00 00 00 00 00
  can0  000   [8]  0E 15 00 00 00 00 00 00
  can0  00E   [8]  00 16 00 00 00 00 00 00
  can0  000   [8]  0E 16 00 00 00 00 00 00
  can0  00E   [8]  00 1B 00 00 00 00 00 00
  can0  000   [8]  0E 1B 00 00 00 00 80 3F
  can0  00E   [8]  00 1C 00 00 00 00 00 00
  can0  000   [8]  0E 1C 00 00 00 00 80 3F
  can0  00E   [8]  00 07 00 00 00 00 00 00
  can0  000   [8]  0E 07 00 00 80 B7 09 42
  can0  00E   [8]  00 09 00 00 00 00 00 00
  can0  000   [8]  0E 09 00 00 18 FE 07 42
  can0  00E   [8]  00 0B 00 00 00 00 00 00
  can0  000   [8]  0E 0B 00 00 B8 25 04 42
  can0  00E   [8]  00 0D 00 00 00 00 00 00
  can0  000   [8]  0E 0D 00 00 48 96 23 42
  can0  00E   [8]  00 13 00 00 00 00 00 00
  can0  000   [8]  0E 13 00 00 00 00 00 00
  can0  00E   [8]  00 14 00 00 00 00 00 00
  can0  000   [8]  0E 14 00 00 00 00 00 00
  can0  00E   [8]  00 17 00 00 00 00 00 00
  can0  000   [8]  0E 17 00 00 00 00 00 00
  can0  00E   [8]  00 18 00 00 00 00 00 00
  can0  000   [8]  0E 18 00 00 00 00 00 00
  can0  00E   [8]  00 1D 00 00 00 00 00 00
  can0  000   [8]  0E 1D 00 00 00 00 80 3F
  can0  00E   [8]  00 1E 00 00 00 00 00 00
  can0  000   [8]  0E 1E 00 00 00 00 80 3F
  can0  00F   [8]  00 06 00 00 00 00 00 00
  can0  000   [8]  0F 06 00 00 50 F3 0E 42
  can0  00F   [8]  00 08 00 00 00 00 00 00
  can0  000   [8]  0F 08 00 00 68 F0 12 42
  can0  00F   [8]  00 0A 00 00 00 00 00 00
  can0  000   [8]  0F 0A 00 00 38 CE 18 42
  can0  00F   [8]  00 0C 00 00 00 00 00 00
  can0  000   [8]  22 06 00 00 00 00 06 42
  can0  000   [8]  22 07 00 00 00 00 FF 41
  can0  000   [8]  22 11 00 00 40 D5 59 42
  can0  000   [8]  22 12 00 00 1F 2F C3 41
  can0  000   [8]  22 13 00 00 FB 38 59 42
  can0  000   [8]  22 14 00 00 0F CA C3 41
  can0  000   [8]  22 15 00 00 1F 2F C3 41
  can0  000   [8]  22 16 00 00 A3 70 1D 3E
  can0  000   [8]  22 17 00 00 D7 87 5A 42
  can0  000   [8]  22 18 00 00 72 68 11 3E
  can0  000   [8]  22 21 00 00 72 68 11 3E
  can0  000   [8]  22 2A 00 00 01 08 00 00
  can0  000   [8]  22 2B 00 00 01 18 00 00
  can0  000   [8]  0F 0C 00 00 A8 33 2D 42
  can0  00F   [8]  00 11 00 00 00 00 00 00
  can0  000   [8]  0F 11 00 00 00 00 00 00
  can0  00F   [8]  00 12 00 00 00 00 00 00
  can0  000   [8]  0F 12 00 00 00 00 00 00
  can0  00F   [8]  00 15 00 00 00 00 00 00
  can0  000   [8]  0F 15 00 00 00 00 00 00
  can0  00F   [8]  00 16 00 00 00 00 00 00
  can0  000   [8]  0F 16 00 00 00 00 00 00
  can0  00F   [8]  00 1B 00 00 00 00 00 00
  can0  000   [8]  0F 1B 00 00 00 00 80 3F
  can0  00F   [8]  00 1C 00 00 00 00 00 00
  can0  000   [8]  0F 1C 00 00 00 00 80 3F
  can0  00F   [8]  00 07 00 00 00 00 00 00
  can0  000   [8]  0F 07 00 00 18 A2 0D 42
  can0  00F   [8]  00 09 00 00 00 00 00 00
  can0  000   [8]  0F 09 00 00 28 95 0A 42
  can0  00F   [8]  00 0B 00 00 00 00 00 00
  can0  000   [8]  0F 0B 00 00 38 CE 18 42
  can0  00F   [8]  00 0D 00 00 00 00 00 00
  can0  000   [8]  0F 0D 00 00 98 6E 2A 42
  can0  00F   [8]  00 13 00 00 00 00 00 00
  can0  000   [8]  0F 13 00 00 00 00 00 00
  can0  00F   [8]  00 14 00 00 00 00 00 00
  can0  000   [8]  0F 14 00 00 00 00 00 00
  can0  00F   [8]  00 17 00 00 00 00 00 00
  can0  000   [8]  0F 17 00 00 00 00 00 00
  can0  00F   [8]  00 18 00 00 00 00 00 00
  can0  000   [8]  0F 18 00 00 00 00 00 00
  can0  00F   [8]  00 1D 00 00 00 00 00 00
  can0  000   [8]  0F 1D 00 00 00 00 80 3F
  can0  00F   [8]  00 1E 00 00 00 00 00 00
  can0  000   [8]  0F 1E 00 00 00 00 80 3F
  can0  010   [8]  00 06 00 00 00 00 00 00
  can0  000   [8]  10 06 00 00 E0 E2 0B 42
  can0  010   [8]  00 08 00 00 00 00 00 00
  can0  000   [8]  10 08 00 00 18 FE 07 42
  can0  010   [8]  00 0A 00 00 00 00 00 00
  can0  000   [8]  10 0A 00 00 80 92 04 42
  can0  010   [8]  00 0C 00 00 00 00 00 00
  can0  000   [8]  10 0C 00 00 38 F4 FC 41
  can0  010   [8]  00 11 00 00 00 00 00 00
  can0  000   [8]  10 11 00 00 00 00 00 00
  can0  010   [8]  00 12 00 00 00 00 00 00
  can0  000   [8]  10 12 00 00 00 00 00 00
  can0  010   [8]  00 15 00 00 00 00 00 00
  can0  000   [8]  10 15 00 00 00 00 00 00
  can0  010   [8]  00 16 00 00 00 00 00 00
  can0  000   [8]  10 16 00 00 00 00 00 00
  can0  010   [8]  00 1B 00 00 00 00 00 00
  can0  000   [8]  10 1B 00 00 00 00 80 3F
  can0  010   [8]  00 1C 00 00 00 00 00 00
  can0  000   [8]  10 1C 00 00 00 00 80 3F
  can0  000   [8]  22 06 00 00 00 00 05 42
  can0  000   [8]  22 07 00 00 00 00 FE 41
  can0  000   [8]  22 11 00 00 84 71 5A 42
  can0  000   [8]  22 12 00 00 90 EE C2 41
  can0  000   [8]  22 13 00 00 F4 7B 59 42
  can0  000   [8]  22 14 00 00 F8 D6 C3 41
  can0  000   [8]  22 15 00 00 90 EE C2 41
  can0  000   [8]  22 16 00 00 A3 70 1D 3E
  can0  000   [8]  22 17 00 00 2A 9E 5A 42
  can0  000   [8]  22 18 00 00 72 68 11 3E
  can0  000   [8]  22 21 00 00 72 68 11 3E
  can0  000   [8]  22 2A 00 00 01 08 00 00
  can0  000   [8]  22 2B 00 00 01 18 00 00
  can0  010   [8]  00 07 00 00 00 00 00 00
  can0  000   [8]  10 07 00 00 10 58 FD 41
  can0  010   [8]  00 09 00 00 00 00 00 00
  can0  000   [8]  10 09 00 00 F0 DA FF 41
  can0  010   [8]  00 0B 00 00 00 00 00 00
  can0  000   [8]  10 0B 00 00 80 92 04 42
  can0  010   [8]  00 0D 00 00 00 00 00 00
  can0  000   [8]  10 0D 00 00 EC 89 01 42
  can0  010   [8]  00 13 00 00 00 00 00 00
  can0  000   [8]  10 13 00 00 00 00 00 00
  can0  010   [8]  00 14 00 00 00 00 00 00
  can0  000   [8]  10 14 00 00 00 00 00 00
  can0  010   [8]  00 17 00 00 00 00 00 00
  can0  000   [8]  10 17 00 00 00 00 00 00
  can0  010   [8]  00 18 00 00 00 00 00 00
  can0  000   [8]  10 18 00 00 00 00 00 00
  can0  010   [8]  00 1D 00 00 00 00 00 00
  can0  000   [8]  10 1D 00 00 00 00 80 3F
  can0  010   [8]  00 1E 00 00 00 00 00 00
  can0  000   [8]  10 1E 00 00 00 00 80 3F
  can0  011   [8]  00 06 00 00 00 00 00 00
  can0  000   [8]  11 06 00 00 68 52 0C 42
  can0  011   [8]  00 08 00 00 00 00 00 00
  can0  000   [8]  11 08 00 00 50 F3 0E 42
  can0  011   [8]  00 0A 00 00 00 00 00 00
  can0  000   [8]  11 0A 00 00 E8 48 09 42
  can0  011   [8]  00 0C 00 00 00 00 00 00
  can0  000   [8]  11 0C 00 00 86 93 36 42
  can0  011   [8]  00 11 00 00 00 00 00 00
  can0  000   [8]  11 11 00 00 00 00 00 00
  can0  011   [8]  00 12 00 00 00 00 00 00
  can0  000   [8]  11 12 00 00 00 00 00 00
  can0  011   [8]  00 15 00 00 00 00 00 00
  can0  000   [8]  11 15 00 00 00 00 00 00
  can0  011   [8]  00 16 00 00 00 00 00 00
  can0  000   [8]  11 16 00 00 00 00 00 00
  can0  011   [8]  00 1B 00 00 00 00 00 00
  can0  000   [8]  11 1B 00 00 00 00 80 3F
  can0  011   [8]  00 1C 00 00 00 00 00 00
  can0  000   [8]  11 1C 00 00 00 00 80 3F
  can0  011   [8]  00 07 00 00 00 00 00 00
  can0  000   [8]  11 07 00 00 18 90 07 42
  can0  011   [8]  00 09 00 00 00 00 00 00
  can0  000   [8]  11 09 00 00 18 A2 0D 42
  can0  011   [8]  00 0B 00 00 00 00 00 00
  can0  000   [8]  11 0B 00 00 80 B7 09 42
  can0  011   [8]  00 0D 00 00 00 00 00 00
  can0  000   [8]  11 0D 00 00 E8 9B FB 41
  can0  011   [8]  00 13 00 00 00 00 00 00
  can0  000   [8]  22 06 00 00 00 40 04 42
  can0  000   [8]  11 13 00 00 00 00 00 00
  can0  000   [8]  22 07 00 00 00 00 FF 41
  can0  000   [8]  22 11 00 00 8C 2E 5A 42
  can0  000   [8]  22 12 00 00 19 A1 C2 41
  can0  000   [8]  22 13 00 00 9A A8 59 42
  can0  000   [8]  22 14 00 00 F8 D6 C3 41
  can0  000   [8]  22 15 00 00 19 A1 C2 41
  can0  000   [8]  22 16 00 00 A3 70 1D 3E
  can0  000   [8]  22 17 00 00 23 E1 5A 42
  can0  000   [8]  22 18 00 00 72 68 11 3E
  can0  000   [8]  22 21 00 00 72 68 11 3E
  can0  000   [8]  22 2A 00 00 01 08 00 00
  can0  000   [8]  22 2B 00 00 01 18 00 00
  can0  011   [8]  00 14 00 00 00 00 00 00
  can0  000   [8]  11 14 00 00 00 00 00 00
  can0  011   [8]  00 17 00 00 00 00 00 00
  can0  000   [8]  11 17 00 00 00 00 00 00
  can0  011   [8]  00 18 00 00 00 00 00 00
  can0  000   [8]  11 18 00 00 00 00 00 00
  can0  011   [8]  00 1D 00 00 00 00 00 00
  can0  000   [8]  11 1D 00 00 00 00 80 3F
  can0  011   [8]  00 1E 00 00 00 00 00 00
  can0  000   [8]  11 1E 00 00 00 00 80 3F
  can0  00A   [8]  00 00 00 00 00 00 00 00
  can0  00B   [8]  00 00 00 00 00 00 00 00
  can0  00C   [8]  00 00 00 00 00 00 00 00
  can0  00D   [8]  00 00 00 00 00 00 00 00
  can0  00E   [8]  00 00 00 00 00 00 00 00
  can0  00F   [8]  00 00 00 00 00 00 00 00
  can0  010   [8]  00 00 00 00 00 00 00 00
  can0  011   [8]  00 00 00 00 00 00 00 00
  can0  000   [8]  22 06 00 00 00 40 04 42
  can0  00A   [8]  00 04 00 00 00 00 18 42
  can0  000   [8]  22 07 00 00 00 00 FE 41
  can0  000   [8]  22 11 00 00 8C 2E 5A 42
  can0  000   [8]  22 12 00 00 EC BA C2 41
  can0  000   [8]  22 13 00 00 9A A8 59 42
  can0  000   [8]  22 14 00 00 6A 96 C3 41
  can0  000   [8]  22 15 00 00 EC BA C2 41
  can0  000   [8]  22 16 00 00 A3 70 1D 3E
  can0  000   [8]  22 17 00 00 D7 87 5A 42
  can0  000   [8]  22 18 00 00 72 68 11 3E
  can0  000   [8]  22 21 00 00 72 68 11 3E
  can0  000   [8]  22 2A 00 00 01 08 00 00
  can0  000   [8]  22 2B 00 00 01 18 00 00
  can0  00B   [8]  00 04 00 00 00 00 18 42
  can0  00C   [8]  00 04 00 00 00 00 18 42
  can0  00D   [8]  00 04 00 00 00 00 18 42
  can0  00E   [8]  00 04 00 00 00 00 18 42
  can0  00F   [8]  00 04 00 00 00 00 18 42
  can0  010   [8]  00 04 00 00 00 00 18 42
  can0  011   [8]  00 04 00 00 00 00 18 42
  can0  000   [8]  22 06 00 00 00 40 05 42
  can0  000   [8]  22 07 00 00 00 00 FE 41
  can0  000   [8]  22 11 00 00 84 71 5A 42
  can0  000   [8]  22 12 00 00 63 08 C3 41
  can0  000   [8]  22 13 00 00 A8 22 59 42
  can0  000   [8]  22 14 00 00 9E 0A C4 41
  can0  000   [8]  22 15 00 00 63 08 C3 41
  can0  000   [8]  22 16 00 00 A3 70 1D 3E
  can0  000   [8]  22 17 00 00 2A 9E 5A 42
  can0  000   [8]  22 18 00 00 68 00 0F 3E
  can0  000   [8]  22 21 00 00 68 00 0F 3E
  can0  000   [8]  22 2A 00 00 01 08 00 00
  can0  000   [8]  22 2B 00 00 01 18 00 00
  can0  000   [8]  22 06 00 00 00 C0 04 42
  can0  000   [8]  22 07 00 00 00 00 FF 41
  can0  000   [8]  22 11 00 00 DF 44 5A 42
  can0  000   [8]  22 12 00 00 7A FB C2 41
  can0  000   [8]  22 13 00 00 5D C9 58 42
  can0  000   [8]  22 14 00 00 9E 0A C4 41
  can0  000   [8]  22 15 00 00 7A FB C2 41
  can0  000   [8]  22 16 00 00 A3 70 1D 3E
  can0  000   [8]  22 17 00 00 E6 01 5A 42
  can0  000   [8]  22 18 00 00 72 68 11 3E
  can0  000   [8]  22 21 00 00 72 68 11 3E
  can0  000   [8]  22 2A 00 00 01 08 00 00
  can0  000   [8]  22 2B 00 00 01 18 00 00
  can0  000   [8]  22 06 00 00 00 80 04 42
  can0  000   [8]  22 07 00 00 00 00 FE 41
  can0  000   [8]  22 11 00 00 84 71 5A 42
  can0  000   [8]  22 12 00 00 90 EE C2 41
  can0  000   [8]  22 13 00 00 ED BE 59 42
  can0  000   [8]  22 14 00 00 87 17 C4 41
  can0  000   [8]  22 15 00 00 90 EE C2 41
  can0  000   [8]  22 16 00 00 AD D8 1F 3E
  can0  000   [8]  22 17 00 00 D0 CA 5A 42
  can0  000   [8]  22 18 00 00 72 68 11 3E
  can0  000   [8]  22 21 00 00 72 68 11 3E
  can0  000   [8]  22 2A 00 00 01 08 00 00
  can0  000   [8]  22 2B 00 00 01 18 00 00
  can0  00A   [8]  00 05 00 00 00 00 18 42
  can0  00B   [8]  00 05 00 00 00 00 18 42
  can0  00C   [8]  00 05 00 00 00 00 18 42
  can0  00D   [8]  00 05 00 00 00 00 18 42
  can0  00E   [8]  00 05 00 00 00 00 18 42
  can0  00F   [8]  00 05 00 00 00 00 18 42
  can0  010   [8]  00 05 00 00 00 00 18 42
  can0  011   [8]  00 05 00 00 00 00 18 42
  can0  00A   [8]  00 02 00 00 00 00 80 3F
  can0  00B   [8]  00 02 00 00 00 00 80 3F
  can0  00C   [8]  00 02 00 00 00 00 80 3F
  can0  00D   [8]  00 02 00 00 00 00 80 3F
  can0  00E   [8]  00 02 00 00 00 00 80 3F
  can0  00F   [8]  00 02 00 00 00 00 80 3F
  can0  010   [8]  00 02 00 00 00 00 80 3F
  can0  011   [8]  00 02 00 00 00 00 80 3F
  can0  000   [8]  22 06 00 00 00 80 04 42
  can0  000   [8]  22 07 00 00 00 00 FC 41
  can0  000   [8]  22 11 00 00 4E 4F 59 42
  can0  000   [8]  22 12 00 00 46 87 C2 41
  can0  000   [8]  22 13 00 00 C5 16 58 42
  can0  000   [8]  22 14 00 00 42 3E C4 41
  can0  000   [8]  22 15 00 00 46 87 C2 41
  can0  000   [8]  22 16 00 00 E0 2D 84 3F
  can0  000   [8]  22 17 00 00 B0 DF 58 42
  can0  000   [8]  22 18 00 00 69 DE D1 3E
  can0  000   [8]  22 21 00 00 69 DE D1 3E
  can0  000   [8]  22 2A 00 00 01 08 00 00
  can0  000   [8]  22 2B 00 00 01 18 00 00
  can0  000   [8]  22 06 00 00 00 40 04 42
  can0  000   [8]  22 07 00 00 00 80 FD 41
  can0  000   [8]  22 11 00 00 5D C9 58 42
  can0  000   [8]  22 12 00 00 02 AE C2 41
  can0  000   [8]  22 13 00 00 64 86 58 42
  can0  000   [8]  22 14 00 00 6A 96 C3 41
  can0  000   [8]  22 15 00 00 02 AE C2 41
  can0  000   [8]  22 16 00 00 D6 C5 81 3F
  can0  000   [8]  22 17 00 00 4E 4F 59 42
  can0  000   [8]  22 18 00 00 41 F1 9B 3F
  can0  000   [8]  22 21 00 00 41 F1 9B 3F
  can0  000   [8]  22 2A 00 00 01 08 00 00
  can0  000   [8]  22 2B 00 00 01 18 00 00
  can0  000   [8]  22 06 00 00 00 C0 06 42
  can0  000   [8]  22 07 00 00 00 80 FC 41
  can0  000   [8]  22 11 00 00 03 F6 58 42
  can0  000   [8]  22 12 00 00 73 6D C2 41
  can0  000   [8]  22 13 00 00 03 F6 58 42
  can0  000   [8]  22 14 00 00 09 3C C3 41
  can0  000   [8]  22 15 00 00 73 6D C2 41
  can0  000   [8]  22 16 00 00 12 14 1F 3F
  can0  000   [8]  22 17 00 00 93 EB 59 42
  can0  000   [8]  22 18 00 00 0C 71 5C 3F
  can0  000   [8]  22 21 00 00 0C 71 5C 3F
  can0  000   [8]  22 2A 00 00 01 08 00 00
  can0  000   [8]  22 2B 00 00 01 18 00 00
  can0  00A   [8]  00 03 00 00 00 00 80 3F
  can0  00B   [8]  00 03 00 00 00 00 80 3F
  can0  00C   [8]  00 03 00 00 00 00 80 3F
  can0  00D   [8]  00 03 00 00 00 00 80 3F
  can0  00E   [8]  00 03 00 00 00 00 80 3F
  can0  00F   [8]  00 03 00 00 00 00 80 3F
  can0  010   [8]  00 03 00 00 00 00 80 3F
  can0  011   [8]  00 03 00 00 00 00 80 3F
  can0  00A   [8]  00 06 00 00 00 00 00 00
  can0  000   [8]  0A 06 00 00 98 2D 1A 42
  can0  000   [8]  22 06 00 00 00 80 02 42
  can0  000   [8]  22 07 00 00 00 00 F4 41
  can0  000   [8]  22 11 00 00 6B 43 58 42
  can0  000   [8]  22 12 00 00 70 28 C0 41
  can0  000   [8]  22 13 00 00 D4 90 57 42
  can0  000   [8]  22 14 00 00 26 BD C3 41
  can0  000   [8]  22 15 00 00 70 28 C0 41
  can0  000   [8]  22 16 00 00 F9 0F 19 3F
  can0  000   [8]  22 17 00 00 A8 22 59 42
  can0  000   [8]  22 18 00 00 2E 6E C3 3E
  can0  000   [8]  22 21 00 00 2E 6E C3 3E
  can0  000   [8]  22 2A 00 00 01 08 00 00
  can0  000   [8]  22 2B 00 00 01 18 00 00
  can0  00A   [8]  00 08 00 00 00 00 00 00
  can0  000   [8]  0A 08 00 00 28 A3 1A 42
  can0  000   [8]  22 06 00 00 00 80 03 42
  can0  000   [8]  22 07 00 00 00 00 03 42
  can0  000   [8]  22 11 00 00 BE 59 58 42
  can0  000   [8]  22 12 00 00 A7 E1 C2 41
  can0  000   [8]  22 13 00 00 CC D3 57 42
  can0  000   [8]  22 14 00 00 DB 55 C3 41
  can0  000   [8]  22 15 00 00 A7 E1 C2 41
  can0  000   [8]  22 16 00 00 B4 C8 F6 3F
  can0  000   [8]  22 17 00 00 5D C9 58 42
  can0  000   [8]  22 18 00 00 69 DE A5 3F
  can0  000   [8]  22 21 00 00 69 DE A5 3F
  can0  000   [8]  22 2A 00 00 01 08 00 00
  can0  000   [8]  22 2B 00 00 01 18 00 00
  can0  00A   [8]  00 0A 00 00 00 00 00 00
  can0  000   [8]  0A 0A 00 00 68 52 0C 42
  can0  00A   [8]  00 0C 00 00 00 00 00 00
  can0  000   [8]  0A 0C 00 00 60 16 C7 41
  can0  00A   [8]  00 11 00 00 00 00 00 00
  can0  000   [8]  0A 11 00 00 00 00 00 00
  can0  00A   [8]  00 12 00 00 00 00 00 00
  can0  000   [8]  0A 12 00 00 00 00 00 00
  can0  00A   [8]  00 15 00 00 00 00 00 00
  can0  000   [8]  0A 15 00 00 00 00 CA 42
  can0  00A   [8]  00 16 00 00 00 00 00 00
  can0  000   [8]  0A 16 00 00 00 00 C0 40
  can0  00A   [8]  00 1B 00 00 00 00 00 00
  can0  000   [8]  0A 1B 00 00 00 00 00 00
  can0  00A   [8]  00 1C 00 00 00 00 00 00
  can0  000   [8]  0A 1C 00 00 00 00 80 3F
  can0  00A   [8]  00 07 00 00 00 00 00 00
  can0  000   [8]  0A 07 00 00 C0 CE 1E 42
  can0  00A   [8]  00 09 00 00 00 00 00 00
  can0  000   [8]  0A 09 00 00 70 7B 1C 42
  can0  00A   [8]  00 0B 00 00 00 00 00 00
  can0  000   [8]  0A 0B 00 00 C0 D9 05 42
  can0  00A   [8]  00 0D 00 00 00 00 00 00
  can0  000   [8]  0A 0D 00 00 90 6C D0 41
  can0  00A   [8]  00 13 00 00 00 00 00 00
  can0  000   [8]  0A 13 00 00 00 00 00 00
  can0  00A   [8]  00 14 00 00 00 00 00 00
  can0  000   [8]  0A 14 00 00 00 00 00 00
  can0  00A   [8]  00 17 00 00 00 00 00 00
  can0  000   [8]  0A 17 00 00 00 80 95 43
  can0  00A   [8]  00 18 00 00 00 00 00 00
  can0  000   [8]  0A 18 00 00 00 00 D8 41
  can0  00A   [8]  00 1D 00 00 00 00 00 00
  can0  000   [8]  0A 1D 00 00 00 00 00 00
  can0  00A   [8]  00 1E 00 00 00 00 00 00
  can0  000   [8]  0A 1E 00 00 00 00 00 00
  can0  00B   [8]  00 06 00 00 00 00 00 00
  can0  000   [8]  0B 06 00 00 28 A3 1A 42
  can0  00B   [8]  00 08 00 00 00 00 00 00
  can0  000   [8]  0B 08 00 00 88 86 23 42
  can0  00B   [8]  00 0A 00 00 00 00 00 00
  can0  000   [8]  0B 0A 00 00 F8 14 16 42
  can0  00B   [8]  00 0C 00 00 00 00 00 00
  can0  000   [8]  0B 0C 00 00 E0 9C F2 41
  can0  00B   [8]  00 11 00 00 00 00 00 00
  can0  000   [8]  22 06 00 00 00 00 05 42
  can0  000   [8]  22 07 00 00 00 00 FD 41
  can0  000   [8]  22 11 00 00 ED BE 59 42
  can0  000   [8]  22 12 00 00 A7 E1 C2 41
  can0  000   [8]  22 13 00 00 B7 9C 58 42
  can0  000   [8]  22 14 00 00 CB F0 C3 41
  can0  000   [8]  22 15 00 00 A7 E1 C2 41
  can0  000   [8]  22 16 00 00 F7 75 18 3F
  can0  000   [8]  0B 11 00 00 00 00 00 00
  can0  000   [8]  22 17 00 00 ED BE 59 42
  can0  000   [8]  22 18 00 00 FE 43 1A 3F
  can0  000   [8]  22 21 00 00 FE 43 1A 3F
  can0  000   [8]  22 2A 00 00 01 08 00 00
  can0  000   [8]  22 2B 00 00 01 18 00 00
  can0  00B   [8]  00 12 00 00 00 00 00 00
  can0  000   [8]  0B 12 00 00 00 00 00 00
  can0  00B   [8]  00 15 00 00 00 00 00 00
  can0  000   [8]  0B 15 00 00 00 00 06 44
  can0  00B   [8]  00 16 00 00 00 00 00 00
  can0  000   [8]  0B 16 00 00 00 00 68 43
  can0  00B   [8]  00 1B 00 00 00 00 00 00
  can0  000   [8]  0B 1B 00 00 00 00 00 00
  can0  00B   [8]  00 1C 00 00 00 00 00 00
  can0  000   [8]  0B 1C 00 00 00 00 00 00
  can0  00B   [8]  00 07 00 00 00 00 00 00
  can0  000   [8]  0B 07 00 00 28 43 19 42
  can0  00B   [8]  00 09 00 00 00 00 00 00
  can0  000   [8]  0B 09 00 00 98 2D 1A 42
  can0  00B   [8]  00 0B 00 00 00 00 00 00
  can0  000   [8]  0B 0B 00 00 80 DA 08 42
  can0  00B   [8]  00 0D 00 00 00 00 00 00
  can0  000   [8]  0B 0D 00 00 A4 B9 30 42
  can0  00B   [8]  00 13 00 00 00 00 00 00
  can0  000   [8]  0B 13 00 00 00 00 00 00
  can0  00B   [8]  00 14 00 00 00 00 00 00
  can0  000   [8]  0B 14 00 00 00 00 00 00
  can0  00B   [8]  00 17 00 00 00 00 00 00
  can0  000   [8]  0B 17 00 00 00 00 92 43
  can0  00B   [8]  00 18 00 00 00 00 00 00
  can0  000   [8]  0B 18 00 00 00 00 A8 41
  can0  00B   [8]  00 1D 00 00 00 00 00 00
  can0  000   [8]  0B 1D 00 00 00 00 00 00
  can0  00B   [8]  00 1E 00 00 00 00 00 00
  can0  000   [8]  0B 1E 00 00 00 00 80 3F
  can0  00C   [8]  00 06 00 00 00 00 00 00
  can0  000   [8]  0C 06 00 00 88 59 18 42
  can0  00C   [8]  00 08 00 00 00 00 00 00
  can0  000   [8]  0C 08 00 00 00 BB 14 42
  can0  00C   [8]  00 0A 00 00 00 00 00 00
  can0  000   [8]  0C 0A 00 00 18 FE 07 42
  can0  00C   [8]  00 0C 00 00 00 00 00 00
  can0  000   [8]  0C 0C 00 00 0C 8E 29 42
  can0  00C   [8]  00 11 00 00 00 00 00 00
  can0  000   [8]  0C 11 00 00 00 00 00 00
  can0  00C   [8]  00 12 00 00 00 00 00 00
  can0  000   [8]  0C 12 00 00 00 00 00 00
  can0  00C   [8]  00 15 00 00 00 00 00 00
  can0  000   [8]  0C 15 00 00 00 40 3F 44
  can0  00C   [8]  00 16 00 00 00 00 00 00
  can0  000   [8]  0C 16 00 00 00 80 A0 43
  can0  00C   [8]  00 1B 00 00 00 00 00 00
  can0  000   [8]  0C 1B 00 00 00 00 00 00
  can0  00C   [8]  00 1C 00 00 00 00 00 00
  can0  000   [8]  0C 1C 00 00 00 00 80 3F
  can0  00C   [8]  00 07 00 00 00 00 00 00
  can0  000   [8]  0C 07 00 00 80 46 1F 42
  can0  000   [8]  22 06 00 00 00 80 05 42
  can0  000   [8]  22 07 00 00 00 40 00 42
  can0  000   [8]  22 11 00 00 F4 7B 59 42
  can0  00C   [8]  00 09 00 00 00 00 00 00
  can0  000   [8]  0C 09 00 00 78 A1 15 42
  can0  000   [8]  22 12 00 00 EC BA C2 41
  can0  000   [8]  22 13 00 00 0A B3 58 42
  can0  000   [8]  22 14 00 00 90 EE C2 41
  can0  000   [8]  22 15 00 00 EC BA C2 41
  can0  000   [8]  22 16 00 00 22 6C 94 3F
  can0  000   [8]  22 17 00 00 B0 DF 58 42
  can0  000   [8]  22 18 00 00 08 AC 1C 3F
  can0  000   [8]  22 21 00 00 08 AC 1C 3F
  can0  000   [8]  22 2A 00 00 01 08 00 00
  can0  000   [8]  22 2B 00 00 01 18 00 00
  can0  00C   [8]  00 0B 00 00 00 00 00 00
  can0  000   [8]  0C 0B 00 00 48 26 0A 42
  can0  00C   [8]  00 0D 00 00 00 00 00 00
  can0  000   [8]  0C 0D 00 00 48 93 E0 41
  can0  00C   [8]  00 13 00 00 00 00 00 00
  can0  000   [8]  0C 13 00 00 00 00 00 00
  can0  00C   [8]  00 14 00 00 00 00 00 00
  can0  000   [8]  0C 14 00 00 00 00 00 00
  can0  00C   [8]  00 17 00 00 00 00 00 00
  can0  000   [8]  0C 17 00 00 00 80 AF 43
  can0  00C   [8]  00 18 00 00 00 00 00 00
  can0  000   [8]  0C 18 00 00 00 00 D8 41
  can0  00C   [8]  00 1D 00 00 00 00 00 00
  can0  000   [8]  0C 1D 00 00 00 00 00 00
  can0  00C   [8]  00 1E 00 00 00 00 00 00
  can0  000   [8]  0C 1E 00 00 00 00 00 00
  can0  00D   [8]  00 06 00 00 00 00 00 00
  can0  000   [8]  0D 06 00 00 C0 CE 1E 42
  can0  00D   [8]  00 08 00 00 00 00 00 00
  can0  000   [8]  0D 08 00 00 B8 70 17 42
  can0  00D   [8]  00 0A 00 00 00 00 00 00
  can0  000   [8]  0D 0A 00 00 08 32 0D 42
  can0  00D   [8]  00 0C 00 00 00 00 00 00
  can0  000   [8]  0D 0C 00 00 0C 8B 1A 42
  can0  00D   [8]  00 11 00 00 00 00 00 00
  can0  000   [8]  0D 11 00 00 00 00 00 00
  can0  00D   [8]  00 12 00 00 00 00 00 00
  can0  000   [8]  0D 12 00 00 00 00 00 00
  can0  00D   [8]  00 15 00 00 00 00 00 00
  can0  000   [8]  0D 15 00 00 00 00 70 41
  can0  00D   [8]  00 16 00 00 00 00 00 00
  can0  000   [8]  0D 16 00 00 00 00 00 00
  can0  00D   [8]  00 1B 00 00 00 00 00 00
  can0  000   [8]  0D 1B 00 00 00 00 00 00
  can0  00D   [8]  00 1C 00 00 00 00 00 00
  can0  000   [8]  0D 1C 00 00 00 00 00 00
  can0  00D   [8]  00 07 00 00 00 00 00 00
  can0  000   [8]  0D 07 00 00 E8 18 1B 42
  can0  00D   [8]  00 09 00 00 00 00 00 00
  can0  000   [8]  0D 09 00 00 58 D5 13 42
  can0  00D   [8]  00 0B 00 00 00 00 00 00
  can0  000   [8]  0D 0B 00 00 00 E5 17 42
  can0  00D   [8]  00 0D 00 00 00 00 00 00
  can0  000   [8]  0D 0D 00 00 C8 DE 20 42
  can0  00D   [8]  00 13 00 00 00 00 00 00
  can0  000   [8]  0D 13 00 00 00 00 00 00
  can0  00D   [8]  00 14 00 00 00 00 00 00
  can0  000   [8]  0D 14 00 00 00 00 00 00
  can0  00D   [8]  00 17 00 00 00 00 00 00
  can0  000   [8]  0D 17 00 00 00 00 96 42
  can0  000   [8]  22 06 00 00 00 C0 04 42
  can0  000   [8]  22 07 00 00 00 80 00 42
  can0  000   [8]  22 11 00 00 93 EB 59 42
  can0  000   [8]  22 12 00 00 2F 94 C2 41
  can0  000   [8]  22 13 00 00 A8 22 59 42
  can0  000   [8]  22 14 00 00 09 3C C3 41
  can0  000   [8]  22 15 00 00 2F 94 C2 41
  can0  000   [8]  22 16 00 00 16 6A BD 3E
  can0  000   [8]  22 17 00 00 32 5B 5A 42
  can0  000   [8]  22 18 00 00 51 49 8D 3E
  can0  000   [8]  22 21 00 00 51 49 8D 3E
  can0  000   [8]  22 2A 00 00 01 08 00 00
  can0  00D   [8]  00 18 00 00 00 00 00 00
  can0  000   [8]  0D 18 00 00 00 00 00 00
  can0  000   [8]  22 2B 00 00 01 18 00 00
  can0  00D   [8]  00 1D 00 00 00 00 00 00
  can0  000   [8]  0D 1D 00 00 00 00 00 00
  can0  00D   [8]  00 1E 00 00 00 00 00 00
  can0  000   [8]  0D 1E 00 00 00 00 80 3F
  can0  00E   [8]  00 06 00 00 00 00 00 00
  can0  000   [8]  0E 06 00 00 C0 CE 1E 42
  can0  00E   [8]  00 08 00 00 00 00 00 00
  can0  000   [8]  0E 08 00 00 98 A0 21 42
  can0  00E   [8]  00 0A 00 00 00 00 00 00
  can0  000   [8]  0E 0A 00 00 C8 62 13 42
  can0  00E   [8]  00 0C 00 00 00 00 00 00
  can0  000   [8]  0E 0C 00 00 58 89 EF 41
  can0  00E   [8]  00 11 00 00 00 00 00 00
  can0  000   [8]  0E 11 00 00 00 00 00 00
  can0  00E   [8]  00 12 00 00 00 00 00 00
  can0  000   [8]  0E 12 00 00 00 00 00 00
  can0  00E   [8]  00 15 00 00 00 00 00 00
  can0  000   [8]  0E 15 00 00 00 00 30 43
  can0  00E   [8]  00 16 00 00 00 00 00 00
  can0  000   [8]  0E 16 00 00 00 00 00 00
  can0  00E   [8]  00 1B 00 00 00 00 00 00
  can0  000   [8]  0E 1B 00 00 00 00 00 00
  can0  00E   [8]  00 1C 00 00 00 00 00 00
  can0  000   [8]  0E 1C 00 00 00 00 80 3F
  can0  00E   [8]  00 07 00 00 00 00 00 00
  can0  000   [8]  0E 07 00 00 C0 CE 1E 42
  can0  00E   [8]  00 09 00 00 00 00 00 00
  can0  000   [8]  0E 09 00 00 E8 68 1D 42
  can0  00E   [8]  00 0B 00 00 00 00 00 00
  can0  000   [8]  0E 0B 00 00 C0 D9 05 42
  can0  00E   [8]  00 0D 00 00 00 00 00 00
  can0  000   [8]  0E 0D 00 00 D0 8A 22 42
  can0  00E   [8]  00 13 00 00 00 00 00 00
  can0  000   [8]  0E 13 00 00 00 00 00 00
  can0  00E   [8]  00 14 00 00 00 00 00 00
  can0  000   [8]  0E 14 00 00 00 00 00 00
  can0  00E   [8]  00 17 00 00 00 00 00 00
  can0  000   [8]  0E 17 00 00 00 00 E6 42
  can0  00E   [8]  00 18 00 00 00 00 00 00
  can0  000   [8]  0E 18 00 00 00 00 00 00
  can0  00E   [8]  00 1D 00 00 00 00 00 00
  can0  000   [8]  0E 1D 00 00 00 00 00 00
  can0  00E   [8]  00 1E 00 00 00 00 00 00
  can0  000   [8]  0E 1E 00 00 00 00 80 3F
  can0  00F   [8]  00 06 00 00 00 00 00 00
  can0  000   [8]  0F 06 00 00 80 46 1F 42
  can0  00F   [8]  00 08 00 00 00 00 00 00
  can0  000   [8]  0F 08 00 00 A0 00 24 42
  can0  00F   [8]  00 0A 00 00 00 00 00 00
  can0  000   [8]  0F 0A 00 00 98 2D 1A 42
  can0  000   [8]  22 06 00 00 00 00 05 42
  can0  000   [8]  22 07 00 00 00 80 FD 41
  can0  000   [8]  22 11 00 00 4E 4F 59 42
  can0  000   [8]  22 12 00 00 D5 C7 C2 41
  can0  000   [8]  22 13 00 00 A8 22 59 42
  can0  000   [8]  22 14 00 00 80 89 C3 41
  can0  000   [8]  22 15 00 00 D5 C7 C2 41
  can0  000   [8]  22 16 00 00 0C 02 BB 3E
  can0  000   [8]  22 17 00 00 39 18 5A 42
  can0  000   [8]  22 18 00 00 16 FB FB 3E
  can0  000   [8]  22 21 00 00 16 FB FB 3E
  can0  00F   [8]  00 0C 00 00 00 00 00 00
  can0  000   [8]  22 2A 00 00 01 08 00 00
  can0  000   [8]  22 2B 00 00 01 18 00 00
  can0  000   [8]  0F 0C 00 00 64 43 2A 42
  can0  00F   [8]  00 11 00 00 00 00 00 00
  can0  000   [8]  0F 11 00 00 00 00 00 00
  can0  00F   [8]  00 12 00 00 00 00 00 00
  can0  000   [8]  0F 12 00 00 00 00 00 00
  can0  00F   [8]  00 15 00 00 00 00 00 00
  can0  000   [8]  0F 15 00 00 00 00 A0 42
  can0  00F   [8]  00 16 00 00 00 00 00 00
  can0  000   [8]  0F 16 00 00 00 00 40 41
  can0  00F   [8]  00 1B 00 00 00 00 00 00
  can0  000   [8]  0F 1B 00 00 00 00 00 00
  can0  00F   [8]  00 1C 00 00 00 00 00 00
  can0  000   [8]  0F 1C 00 00 00 00 80 3F
  can0  00F   [8]  00 07 00 00 00 00 00 00
  can0  000   [8]  0F 07 00 00 80 46 1F 42
  can0  00F   [8]  00 09 00 00 00 00 00 00
  can0  000   [8]  0F 09 00 00 70 7B 1C 42
  can0  00F   [8]  00 0B 00 00 00 00 00 00
  can0  000   [8]  0F 0B 00 00 48 B8 19 42
  can0  00F   [8]  00 0D 00 00 00 00 00 00
  can0  000   [8]  0F 0D 00 00 78 46 28 42
  can0  00F   [8]  00 13 00 00 00 00 00 00
  can0  000   [8]  0F 13 00 00 00 00 00 00
  can0  00F   [8]  00 14 00 00 00 00 00 00
  can0  000   [8]  0F 14 00 00 00 00 00 00
  can0  00F   [8]  00 17 00 00 00 00 00 00
  can0  000   [8]  0F 17 00 00 00 00 AE 42
  can0  00F   [8]  00 18 00 00 00 00 00 00
  can0  000   [8]  0F 18 00 00 00 00 00 00
  can0  00F   [8]  00 1D 00 00 00 00 00 00
  can0  000   [8]  0F 1D 00 00 00 00 00 00
  can0  00F   [8]  00 1E 00 00 00 00 00 00
  can0  000   [8]  0F 1E 00 00 00 00 80 3F
  can0  010   [8]  00 06 00 00 00 00 00 00
  can0  000   [8]  10 06 00 00 E8 18 1B 42
  can0  010   [8]  00 08 00 00 00 00 00 00
  can0  000   [8]  10 08 00 00 B8 70 17 42
  can0  010   [8]  00 0A 00 00 00 00 00 00
  can0  000   [8]  10 0A 00 00 18 47 06 42
  can0  010   [8]  00 0C 00 00 00 00 00 00
  can0  000   [8]  10 0C 00 00 00 03 FA 41
  can0  010   [8]  00 11 00 00 00 00 00 00
  can0  000   [8]  10 11 00 00 00 00 00 00
  can0  010   [8]  00 12 00 00 00 00 00 00
  can0  000   [8]  10 12 00 00 00 00 00 00
  can0  010   [8]  00 15 00 00 00 00 00 00
  can0  000   [8]  10 15 00 00 00 00 D8 42
  can0  010   [8]  00 16 00 00 00 00 00 00
  can0  000   [8]  10 16 00 00 00 00 00 00
  can0  010   [8]  00 1B 00 00 00 00 00 00
  can0  000   [8]  10 1B 00 00 00 00 00 00
  can0  000   [8]  22 06 00 00 00 00 05 42
  can0  000   [8]  22 07 00 00 00 C0 00 42
  can0  000   [8]  22 11 00 00 39 18 5A 42
  can0  000   [8]  22 12 00 00 BD D4 C2 41
  can0  000   [8]  22 13 00 00 A1 65 59 42
  can0  000   [8]  22 14 00 00 0F CA C3 41
  can0  000   [8]  22 15 00 00 BD D4 C2 41
  can0  000   [8]  22 16 00 00 D1 91 AC 3E
  can0  000   [8]  22 17 00 00 7D B4 5A 42
  can0  000   [8]  22 18 00 00 2C B2 7D 3E
  can0  000   [8]  22 21 00 00 2C B2 7D 3E
  can0  000   [8]  22 2A 00 00 01 08 00 00
  can0  000   [8]  22 2B 00 00 01 18 00 00
  can0  010   [8]  00 1C 00 00 00 00 00 00
  can0  000   [8]  10 1C 00 00 00 00 80 3F
  can0  010   [8]  00 07 00 00 00 00 00 00
  can0  000   [8]  10 07 00 00 B0 88 16 42
  can0  010   [8]  00 09 00 00 00 00 00 00
  can0  000   [8]  10 09 00 00 98 FC 16 42
  can0  010   [8]  00 0B 00 00 00 00 00 00
  can0  000   [8]  10 0B 00 00 A0 B4 06 42
  can0  010   [8]  00 0D 00 00 00 00 00 00
  can0  000   [8]  10 0D 00 00 FC 9D 00 42
  can0  010   [8]  00 13 00 00 00 00 00 00
  can0  000   [8]  10 13 00 00 00 00 00 00
  can0  010   [8]  00 14 00 00 00 00 00 00
  can0  000   [8]  10 14 00 00 00 00 00 00
  can0  010   [8]  00 17 00 00 00 00 00 00
  can0  000   [8]  10 17 00 00 00 00 BE 42
  can0  010   [8]  00 18 00 00 00 00 00 00
  can0  000   [8]  10 18 00 00 00 00 A0 40
  can0  010   [8]  00 1D 00 00 00 00 00 00
  can0  000   [8]  10 1D 00 00 00 00 00 00
  can0  010   [8]  00 1E 00 00 00 00 00 00
  can0  000   [8]  10 1E 00 00 00 00 80 3F
  can0  011   [8]  00 06 00 00 00 00 00 00
  can0  000   [8]  11 06 00 00 40 57 1E 42
  can0  011   [8]  00 08 00 00 00 00 00 00
  can0  000   [8]  11 08 00 00 B8 27 21 42
  can0  011   [8]  00 0A 00 00 00 00 00 00
  can0  000   [8]  11 0A 00 00 78 73 0B 42
  can0  011   [8]  00 0C 00 00 00 00 00 00
  can0  000   [8]  11 0C 00 00 40 20 33 42
  can0  011   [8]  00 11 00 00 00 00 00 00
  can0  000   [8]  11 11 00 00 00 00 00 00
  can0  011   [8]  00 12 00 00 00 00 00 00
  can0  000   [8]  11 12 00 00 00 00 00 00
  can0  011   [8]  00 15 00 00 00 00 00 00
  can0  000   [8]  11 15 00 00 00 00 DE 42
  can0  011   [8]  00 16 00 00 00 00 00 00
  can0  000   [8]  11 16 00 00 00 00 00 41
  can0  011   [8]  00 1B 00 00 00 00 00 00
  can0  000   [8]  11 1B 00 00 00 00 00 00
  can0  011   [8]  00 1C 00 00 00 00 00 00
  can0  000   [8]  11 1C 00 00 00 00 80 3F
  can0  011   [8]  00 07 00 00 00 00 00 00
  can0  000   [8]  11 07 00 00 C0 CE 1E 42
  can0  011   [8]  00 09 00 00 00 00 00 00
  can0  000   [8]  11 09 00 00 F8 7A 24 42
  can0  011   [8]  00 0B 00 00 00 00 00 00
  can0  000   [8]  11 0B 00 00 78 73 0B 42
  can0  011   [8]  00 0D 00 00 00 00 00 00
  can0  000   [8]  11 0D 00 00 70 BB F9 41
  can0  011   [8]  00 13 00 00 00 00 00 00
  can0  000   [8]  22 06 00 00 00 40 06 42
  can0  000   [8]  22 07 00 00 00 00 00 42
  can0  000   [8]  22 11 00 00 8C 2E 5A 42
  can0  000   [8]  22 12 00 00 2F 94 C2 41
  can0  000   [8]  22 13 00 00 56 0C 59 42
  can0  000   [8]  22 14 00 00 3D B0 C3 41
  can0  000   [8]  22 15 00 00 2F 94 C2 41
  can0  000   [8]  22 16 00 00 B0 03 07 3F
  can0  000   [8]  22 17 00 00 32 5B 5A 42
  can0  000   [8]  22 18 00 00 B8 8D A6 3E
  can0  000   [8]  22 21 00 00 B8 8D A6 3E
  can0  000   [8]  22 2A 00 00 01 08 00 00
  can0  000   [8]  22 2B 00 00 01 18 00 00
  can0  000   [8]  11 13 00 00 00 00 00 00
  can0  011   [8]  00 14 00 00 00 00 00 00
  can0  000   [8]  11 14 00 00 00 00 00 00
  can0  011   [8]  00 17 00 00 00 00 00 00
  can0  000   [8]  11 17 00 00 00 00 06 43
  can0  011   [8]  00 18 00 00 00 00 00 00
  can0  000   [8]  11 18 00 00 00 00 00 00
  can0  011   [8]  00 1D 00 00 00 00 00 00
  can0  000   [8]  11 1D 00 00 00 00 00 00
  can0  011   [8]  00 1E 00 00 00 00 00 00
  can0  000   [8]  11 1E 00 00 00 00 80 3F
  can0  000   [8]  22 06 00 00 00 00 05 42
  can0  000   [8]  22 07 00 00 00 80 FB 41
  can0  000   [8]  22 11 00 00 32 5B 5A 42
  can0  000   [8]  22 12 00 00 90 EE C2 41
  can0  000   [8]  22 13 00 00 03 F6 58 42
  can0  000   [8]  22 14 00 00 0F CA C3 41
  can0  000   [8]  22 15 00 00 90 EE C2 41
  can0  000   [8]  22 16 00 00 6F 81 94 3E
  can0  000   [8]  22 17 00 00 8C 2E 5A 42
  can0  000   [8]  22 18 00 00 7D 1D 98 3E
  can0  000   [8]  22 21 00 00 7D 1D 98 3E
  can0  000   [8]  22 2A 00 00 01 08 00 00
  can0  000   [8]  22 2B 00 00 01 18 00 00
  can0  000   [8]  22 06 00 00 00 C0 04 42
  can0  000   [8]  22 07 00 00 00 00 FF 41
  can0  000   [8]  22 11 00 00 39 18 5A 42
  can0  000   [8]  22 12 00 00 97 7C C3 41
  can0  000   [8]  22 13 00 00 56 0C 59 42
  can0  000   [8]  22 14 00 00 0F CA C3 41
  can0  000   [8]  22 15 00 00 97 7C C3 41
  can0  000   [8]  22 16 00 00 18 E2 78 3E
  can0  000   [8]  22 17 00 00 84 71 5A 42
  can0  000   [8]  22 18 00 00 22 4A 7B 3E
  can0  000   [8]  22 21 00 00 22 4A 7B 3E
  can0  000   [8]  22 2A 00 00 01 08 00 00
  can0  000   [8]  22 2B 00 00 01 18 00 00
  can0  000   [8]  22 06 00 00 00 40 05 42
  can0  000   [8]  22 07 00 00 00 C0 00 42
  can0  000   [8]  22 11 00 00 8C 2E 5A 42
  can0  000   [8]  22 12 00 00 1F 2F C3 41
  can0  000   [8]  22 13 00 00 A1 65 59 42
  can0  000   [8]  22 14 00 00 0F CA C3 41
  can0  000   [8]  22 15 00 00 1F 2F C3 41
  can0  000   [8]  22 16 00 00 A5 BD A1 3E
  can0  000   [8]  22 17 00 00 D7 87 5A 42
  can0  000   [8]  22 18 00 00 47 E1 8A 3E
  can0  000   [8]  22 21 00 00 47 E1 8A 3E
  can0  000   [8]  22 2A 00 00 01 08 00 00
  can0  000   [8]  22 2B 00 00 01 18 00 00
  can0  000   [8]  22 06 00 00 00 C0 04 42
  can0  000   [8]  22 07 00 00 00 00 FE 41
  can0  000   [8]  22 11 00 00 93 EB 59 42
  can0  000   [8]  22 12 00 00 02 AE C2 41
  can0  000   [8]  22 13 00 00 FB 38 59 42
  can0  000   [8]  22 14 00 00 CB F0 C3 41
  can0  000   [8]  22 15 00 00 02 AE C2 41
  can0  000   [8]  22 16 00 00 42 AD 89 3E
  can0  000   [8]  22 17 00 00 2A 9E 5A 42
  can0  000   [8]  22 18 00 00 D4 09 68 3E
  can0  000   [8]  22 21 00 00 D4 09 68 3E
  can0  000   [8]  22 2A 00 00 01 08 00 00
  can0  000   [8]  22 2B 00 00 01 18 00 00
  can0  000   [8]  22 06 00 00 00 80 04 42
  can0  000   [8]  22 07 00 00 00 80 FF 41
  can0  000   [8]  22 11 00 00 93 EB 59 42
  can0  000   [8]  22 12 00 00 EC BA C2 41
  can0  000   [8]  22 13 00 00 9A A8 59 42
  can0  000   [8]  22 14 00 00 E1 E3 C3 41
  can0  000   [8]  22 15 00 00 EC BA C2 41
  can0  000   [8]  22 16 00 00 34 11 86 3E
  can0  000   [8]  22 17 00 00 23 E1 5A 42
  can0  000   [8]  22 18 00 00 51 49 8D 3E
  can0  000   [8]  22 21 00 00 51 49 8D 3E
  can0  000   [8]  22 2A 00 00 01 08 00 00
  can0  000   [8]  22 2B 00 00 01 18 00 00
  can0  000   [8]  22 06 00 00 00 40 04 42
  can0  000   [8]  22 07 00 00 00 C0 00 42
  can0  000   [8]  22 11 00 00 93 EB 59 42
  can0  000   [8]  22 12 00 00 90 EE C2 41
  can0  000   [8]  22 13 00 00 4E 4F 59 42
  can0  000   [8]  22 14 00 00 26 BD C3 41
  can0  000   [8]  22 15 00 00 90 EE C2 41
  can0  000   [8]  22 16 00 00 34 11 86 3E
  can0  000   [8]  22 17 00 00 DF 44 5A 42
  can0  000   [8]  22 18 00 00 10 7A 76 3E
  can0  000   [8]  22 21 00 00 10 7A 76 3E
  can0  000   [8]  22 2A 00 00 01 08 00 00
  can0  000   [8]  22 2B 00 00 01 18 00 00
  can0  000   [8]  22 06 00 00 00 40 06 42
  can0  000   [8]  22 07 00 00 00 80 FD 41
  can0  000   [8]  22 11 00 00 E6 01 5A 42
  can0  000   [8]  22 12 00 00 36 22 C3 41
  can0  000   [8]  22 13 00 00 F4 7B 59 42
  can0  000   [8]  22 14 00 00 E1 E3 C3 41
  can0  000   [8]  22 15 00 00 36 22 C3 41
  can0  000   [8]  22 16 00 00 20 41 81 3E
  can0  000   [8]  22 17 00 00 84 71 5A 42
  can0  000   [8]  22 18 00 00 D4 09 68 3E
  can0  000   [8]  22 21 00 00 D4 09 68 3E
  can0  000   [8]  22 2A 00 00 01 08 00 00
  can0  000   [8]  22 2B 00 00 01 18 00 00
  can0  000   [8]  22 06 00 00 00 80 05 42
  can0  000   [8]  22 07 00 00 00 80 00 42
  can0  000   [8]  22 11 00 00 8C 2E 5A 42
  can0  000   [8]  22 12 00 00 19 A1 C2 41
  can0  000   [8]  22 13 00 00 FB 38 59 42
  can0  000   [8]  22 14 00 00 0F CA C3 41
  can0  000   [8]  22 15 00 00 19 A1 C2 41
  can0  000   [8]  22 16 00 00 3E 79 88 3E
  can0  000   [8]  22 17 00 00 84 71 5A 42
  can0  000   [8]  22 18 00 00 39 45 87 3E
  can0  000   [8]  22 21 00 00 39 45 87 3E
  can0  000   [8]  22 2A 00 00 01 08 00 00
  can0  000   [8]  22 2B 00 00 01 18 00 00
  can0  000   [8]  22 06 00 00 00 80 04 42
  can0  000   [8]  22 07 00 00 00 00 FE 41
  can0  000   [8]  22 11 00 00 DF 44 5A 42
  can0  000   [8]  22 12 00 00 F1 48 C3 41
  can0  000   [8]  22 13 00 00 A1 65 59 42
  can0  000   [8]  22 14 00 00 87 17 C4 41
  can0  000   [8]  22 15 00 00 F1 48 C3 41
  can0  000   [8]  22 16 00 00 34 11 86 3E
  can0  000   [8]  22 17 00 00 2A 9E 5A 42
  can0  000   [8]  22 18 00 00 D4 09 68 3E
  can0  000   [8]  22 21 00 00 D4 09 68 3E
  can0  000   [8]  22 2A 00 00 01 08 00 00
  can0  000   [8]  22 2B 00 00 01 18 00 00
  can0  000   [8]  22 06 00 00 00 40 05 42
  can0  000   [8]  22 07 00 00 00 00 FF 41
  can0  000   [8]  22 11 00 00 32 5B 5A 42
  can0  000   [8]  22 12 00 00 A7 E1 C2 41
  can0  000   [8]  22 13 00 00 FB 38 59 42
  can0  000   [8]  22 14 00 00 53 A3 C3 41
  can0  000   [8]  22 15 00 00 A7 E1 C2 41
  can0  000   [8]  22 16 00 00 18 E2 78 3E
  can0  000   [8]  22 17 00 00 84 71 5A 42
  can0  000   [8]  22 18 00 00 DE 71 6A 3E
  can0  000   [8]  22 21 00 00 DE 71 6A 3E
  can0  000   [8]  22 2A 00 00 01 08 00 00
  can0  000   [8]  22 2B 00 00 01 18 00 00
  can0  000   [8]  22 06 00 00 00 C0 04 42
  can0  000   [8]  22 07 00 00 00 80 FD 41
  can0  000   [8]  22 11 00 00 E6 01 5A 42
  can0  000   [8]  22 12 00 00 DB 55 C3 41
  can0  000   [8]  22 13 00 00 47 92 59 42
  can0  000   [8]  22 14 00 00 0F CA C3 41
  can0  000   [8]  22 15 00 00 DB 55 C3 41
  can0  000   [8]  22 16 00 00 2F DD 84 3E
  can0  000   [8]  22 17 00 00 84 71 5A 42
  can0  000   [8]  22 18 00 00 FC A9 71 3E
  can0  000   [8]  22 21 00 00 FC A9 71 3E
  can0  000   [8]  22 2A 00 00 01 08 00 00
  can0  000   [8]  22 2B 00 00 01 18 00 00
  can0  000   [8]  22 06 00 00 00 80 05 42
  can0  000   [8]  22 07 00 00 00 00 00 42
  can0  000   [8]  22 11 00 00 40 D5 59 42
  can0  000   [8]  22 12 00 00 BD D4 C2 41
  can0  000   [8]  22 13 00 00 F4 7B 59 42
  can0  000   [8]  22 14 00 00 CB F0 C3 41
  can0  000   [8]  22 15 00 00 BD D4 C2 41
  can0  000   [8]  22 16 00 00 1B 0D 80 3E
  can0  000   [8]  22 17 00 00 84 71 5A 42
  can0  000   [8]  22 18 00 00 FC A9 71 3E
  can0  000   [8]  22 21 00 00 FC A9 71 3E
  can0  000   [8]  22 2A 00 00 01 08 00 00
  can0  000   [8]  22 2B 00 00 01 18 00 00
  can0  000   [8]  22 06 00 00 00 80 05 42
  can0  000   [8]  22 07 00 00 00 80 FF 41
  can0  000   [8]  22 11 00 00 93 EB 59 42
  can0  000   [8]  22 12 00 00 CB F0 C3 41
  can0  000   [8]  22 13 00 00 FB 38 59 42
  can0  000   [8]  22 14 00 00 3D B0 C3 41
  can0  000   [8]  22 15 00 00 CB F0 C3 41
  can0  000   [8]  22 16 00 00 2C B2 7D 3E
  can0  000   [8]  22 17 00 00 84 71 5A 42
  can0  000   [8]  22 18 00 00 D4 09 68 3E
  can0  000   [8]  22 21 00 00 D4 09 68 3E
  can0  000   [8]  22 2A 00 00 01 08 00 00
  can0  000   [8]  22 2B 00 00 01 18 00 00
  can0  000   [8]  22 06 00 00 00 40 05 42
  can0  000   [8]  22 07 00 00 00 80 FB 41
  can0  000   [8]  22 11 00 00 DF 44 5A 42
  can0  000   [8]  22 12 00 00 36 22 C3 41
  can0  000   [8]  22 13 00 00 A1 65 59 42
  can0  000   [8]  22 14 00 00 1F 2F C3 41
  can0  000   [8]  22 15 00 00 36 22 C3 41
  can0  000   [8]  22 16 00 00 34 11 86 3E
  can0  000   [8]  22 17 00 00 39 18 5A 42
  can0  000   [8]  22 18 00 00 D4 09 68 3E
  can0  000   [8]  22 21 00 00 D4 09 68 3E
  can0  000   [8]  22 2A 00 00 01 08 00 00
  can0  000   [8]  22 2B 00 00 01 18 00 00
  can0  000   [8]  22 06 00 00 00 00 05 42
  can0  000   [8]  22 07 00 00 00 80 FB 41
  can0  000   [8]  22 11 00 00 84 71 5A 42
  can0  000   [8]  22 12 00 00 FC 1F C2 41
  can0  000   [8]  22 13 00 00 E6 01 5A 42
  can0  000   [8]  22 14 00 00 26 BD C3 41
  can0  000   [8]  22 15 00 00 FC 1F C2 41
  can0  000   [8]  22 16 00 00 22 4A 7B 3E
  can0  000   [8]  22 17 00 00 1C 24 5B 42
  can0  000   [8]  22 18 00 00 FC A9 71 3E
  can0  000   [8]  22 21 00 00 FC A9 71 3E
  can0  000   [8]  22 2A 00 00 01 08 00 00
  can0  000   [8]  22 2B 00 00 01 18 00 00
  can0  00A   [8]  00 06 00 00 00 00 00 00
  can0  000   [8]  0A 06 00 00 48 B8 19 42
  can0  000   [8]  22 06 00 00 00 80 03 42
  can0  000   [8]  22 07 00 00 00 80 F8 41
  can0  000   [8]  22 11 00 00 39 18 5A 42
  can0  000   [8]  22 12 00 00 BD D4 C2 41
  can0  000   [8]  22 13 00 00 56 0C 59 42
  can0  000   [8]  22 14 00 00 0F CA C3 41
  can0  000   [8]  22 15 00 00 BD D4 C2 41
  can0  000   [8]  22 16 00 00 2C B2 7D 3E
  can0  000   [8]  22 17 00 00 DF 44 5A 42
  can0  000   [8]  22 18 00 00 DE 71 6A 3E
  can0  000   [8]  22 21 00 00 DE 71 6A 3E
  can0  000   [8]  22 2A 00 00 01 08 00 00
  can0  000   [8]  22 2B 00 00 01 18 00 00
  can0  000   [8]  22 06 00 00 00 C0 02 42
  can0  000   [8]  22 07 00 00 00 80 F4 41
  can0  000   [8]  22 11 00 00 93 EB 59 42
  can0  000   [8]  22 12 00 00 F1 48 C3 41
  can0  000   [8]  22 13 00 00 A8 22 59 42
  can0  000   [8]  22 14 00 00 F8 D6 C3 41
  can0  000   [8]  22 15 00 00 F1 48 C3 41
  can0  000   [8]  22 16 00 00 47 E1 8A 3E
  can0  000   [8]  22 17 00 00 7D B4 5A 42
  can0  000   [8]  22 18 00 00 DE 71 6A 3E
  can0  000   [8]  22 21 00 00 DE 71 6A 3E
  can0  000   [8]  22 2A 00 00 01 08 00 00
  can0  000   [8]  22 2B 00 00 01 18 00 00
  can0  000   [8]  22 06 00 00 00 40 03 42
  can0  000   [8]  22 07 00 00 00 00 FE 41
  can0  000   [8]  22 11 00 00 39 18 5A 42
  can0  000   [8]  22 12 00 00 90 EE C2 41
  can0  000   [8]  22 13 00 00 FB 38 59 42
  can0  000   [8]  22 14 00 00 F8 D6 C3 41
  can0  000   [8]  22 15 00 00 90 EE C2 41
  can0  000   [8]  22 16 00 00 2C B2 7D 3E
  can0  000   [8]  22 17 00 00 DF 44 5A 42
  can0  000   [8]  22 18 00 00 DE 71 6A 3E
  can0  000   [8]  22 21 00 00 DE 71 6A 3E
  can0  000   [8]  22 2A 00 00 01 08 00 00
  can0  000   [8]  22 2B 00 00 01 18 00 00
  can0  00A   [8]  00 08 00 00 00 00 00 00
  can0  000   [8]  0A 08 00 00 E0 8E 1B 42
  can0  00A   [8]  00 0A 00 00 00 00 00 00
  can0  000   [8]  0A 0A 00 00 18 A2 0D 42
  can0  000   [8]  22 06 00 00 00 00 04 42
  can0  000   [8]  22 07 00 00 00 80 FE 41
  can0  000   [8]  22 11 00 00 E6 01 5A 42
  can0  000   [8]  22 12 00 00 B4 FD C3 41
  can0  000   [8]  22 13 00 00 4E 4F 59 42
  can0  000   [8]  22 14 00 00 E1 E3 C3 41
  can0  000   [8]  22 15 00 00 B4 FD C3 41
  can0  000   [8]  22 16 00 00 22 4A 7B 3E
  can0  000   [8]  22 17 00 00 84 71 5A 42
  can0  000   [8]  22 18 00 00 06 12 74 3E
  can0  000   [8]  22 21 00 00 06 12 74 3E
  can0  00A   [8]  00 0C 00 00 00 00 00 00
  can0  000   [8]  22 2A 00 00 01 08 00 00
  can0  000   [8]  22 2B 00 00 01 18 00 00
  can0  000   [8]  0A 0C 00 00 10 A1 C2 41
  can0  00A   [8]  00 11 00 00 00 00 00 00
  can0  000   [8]  0A 11 00 00 00 00 00 00
  can0  00A   [8]  00 12 00 00 00 00 00 00
  can0  000   [8]  0A 12 00 00 00 00 00 00
  can0  00A   [8]  00 15 00 00 00 00 00 00
  can0  000   [8]  0A 15 00 00 00 00 C6 42
  can0  00A   [8]  00 16 00 00 00 00 00 00
  can0  000   [8]  0A 16 00 00 00 00 80 40
  can0  00A   [8]  00 1B 00 00 00 00 00 00
  can0  000   [8]  0A 1B 00 00 00 00 00 00
  can0  00A   [8]  00 1C 00 00 00 00 00 00
  can0  000   [8]  0A 1C 00 00 00 00 80 3F
  can0  00A   [8]  00 07 00 00 00 00 00 00
  can0  000   [8]  0A 07 00 00 48 B8 19 42
  can0  00A   [8]  00 09 00 00 00 00 00 00
  can0  000   [8]  0A 09 00 00 00 E5 17 42
  can0  00A   [8]  00 0B 00 00 00 00 00 00
  can0  000   [8]  0A 0B 00 00 30 6C 08 42
  can0  00A   [8]  00 0D 00 00 00 00 00 00
  can0  000   [8]  0A 0D 00 00 E8 73 CB 41
  can0  00A   [8]  00 13 00 00 00 00 00 00
  can0  000   [8]  0A 13 00 00 00 00 00 00
  can0  00A   [8]  00 14 00 00 00 00 00 00
  can0  000   [8]  0A 14 00 00 00 00 00 00
  can0  00A   [8]  00 17 00 00 00 00 00 00
  can0  000   [8]  0A 17 00 00 00 00 01 43
  can0  00A   [8]  00 18 00 00 00 00 00 00
  can0  000   [8]  0A 18 00 00 00 00 00 00
  can0  00A   [8]  00 1D 00 00 00 00 00 00
  can0  000   [8]  0A 1D 00 00 00 00 00 00
  can0  00A   [8]  00 1E 00 00 00 00 00 00
  can0  000   [8]  0A 1E 00 00 00 00 80 3F
  can0  00B   [8]  00 06 00 00 00 00 00 00
  can0  000   [8]  0B 06 00 00 98 FC 16 42
  can0  00B   [8]  00 08 00 00 00 00 00 00
  can0  000   [8]  0B 08 00 00 E0 8E 1B 42
  can0  00B   [8]  00 0A 00 00 00 00 00 00
  can0  000   [8]  0B 0A 00 00 88 59 18 42
  can0  00B   [8]  00 0C 00 00 00 00 00 00
  can0  000   [8]  0B 0C 00 00 50 64 EF 41
  can0  00B   [8]  00 11 00 00 00 00 00 00
  can0  000   [8]  0B 11 00 00 00 00 00 00
  can0  00B   [8]  00 12 00 00 00 00 00 00
  can0  000   [8]  0B 12 00 00 00 00 00 00
  can0  00B   [8]  00 15 00 00 00 00 00 00
  can0  000   [8]  0B 15 00 00 00 00 22 43
  can0  00B   [8]  00 16 00 00 00 00 00 00
  can0  000   [8]  0B 16 00 00 00 00 00 40
  can0  00B   [8]  00 1B 00 00 00 00 00 00
  can0  000   [8]  0B 1B 00 00 00 00 00 00
  can0  000   [8]  22 06 00 00 00 80 04 42
  can0  000   [8]  22 07 00 00 00 00 FE 41
  can0  000   [8]  22 11 00 00 8C 2E 5A 42
  can0  000   [8]  22 12 00 00 63 08 C3 41
  can0  000   [8]  22 13 00 00 56 0C 59 42
  can0  000   [8]  22 14 00 00 0F CA C3 41
  can0  000   [8]  22 15 00 00 63 08 C3 41
  can0  000   [8]  22 16 00 00 42 AD 89 3E
  can0  000   [8]  22 17 00 00 39 18 5A 42
  can0  000   [8]  22 18 00 00 DE 71 6A 3E
  can0  000   [8]  22 21 00 00 DE 71 6A 3E
  can0  000   [8]  22 2A 00 00 01 08 00 00
  can0  000   [8]  22 2B 00 00 01 18 00 00
  can0  00B   [8]  00 1C 00 00 00 00 00 00
  can0  000   [8]  0B 1C 00 00 00 00 80 3F
  can0  00B   [8]  00 07 00 00 00 00 00 00
  can0  000   [8]  0B 07 00 00 E0 8E 1B 42
  can0  00B   [8]  00 09 00 00 00 00 00 00
  can0  000   [8]  0B 09 00 00 18 F2 1C 42
  can0  00B   [8]  00 0B 00 00 00 00 00 00
  can0  000   [8]  0B 0B 00 00 78 73 0B 42
  can0  00B   [8]  00 0D 00 00 00 00 00 00
  can0  000   [8]  0B 0D 00 00 D4 5C 28 42
  can0  00B   [8]  00 13 00 00 00 00 00 00
  can0  000   [8]  0B 13 00 00 00 00 00 00
  can0  00B   [8]  00 14 00 00 00 00 00 00
  can0  000   [8]  0B 14 00 00 00 00 00 00
  can0  00B   [8]  00 17 00 00 00 00 00 00
  can0  000   [8]  0B 17 00 00 00 00 08 43
  can0  00B   [8]  00 18 00 00 00 00 00 00
  can0  000   [8]  0B 18 00 00 00 00 00 00
  can0  00B   [8]  00 1D 00 00 00 00 00 00
  can0  000   [8]  0B 1D 00 00 00 00 00 00
  can0  00B   [8]  00 1E 00 00 00 00 00 00
  can0  000   [8]  0B 1E 00 00 00 00 80 3F
  can0  00C   [8]  00 06 00 00 00 00 00 00
  can0  000   [8]  0C 06 00 00 10 05 1C 42
  can0  00C   [8]  00 08 00 00 00 00 00 00
  can0  000   [8]  0C 08 00 00 88 59 18 42
  can0  00C   [8]  00 0A 00 00 00 00 00 00
  can0  000   [8]  0C 0A 00 00 E8 48 09 42
  can0  00C   [8]  00 0C 00 00 00 00 00 00
  can0  000   [8]  0C 0C 00 00 B8 1E 24 42
  can0  00C   [8]  00 11 00 00 00 00 00 00
  can0  000   [8]  0C 11 00 00 00 00 00 00
  can0  00C   [8]  00 12 00 00 00 00 00 00
  can0  000   [8]  0C 12 00 00 00 00 00 00
  can0  00C   [8]  00 15 00 00 00 00 00 00
  can0  000   [8]  0C 15 00 00 00 00 C0 42
  can0  00C   [8]  00 16 00 00 00 00 00 00
  can0  000   [8]  0C 16 00 00 00 00 00 00
  can0  00C   [8]  00 1B 00 00 00 00 00 00
  can0  000   [8]  0C 1B 00 00 00 00 00 00
  can0  00C   [8]  00 1C 00 00 00 00 00 00
  can0  000   [8]  0C 1C 00 00 00 00 80 3F
  can0  00C   [8]  00 07 00 00 00 00 00 00
  can0  000   [8]  0C 07 00 00 70 7B 1C 42
  can0  00C   [8]  00 09 00 00 00 00 00 00
  can0  000   [8]  0C 09 00 00 18 48 14 42
  can0  00C   [8]  00 0B 00 00 00 00 00 00
  can0  000   [8]  0C 0B 00 00 68 52 0C 42
  can0  00C   [8]  00 0D 00 00 00 00 00 00
  can0  000   [8]  0C 0D 00 00 10 96 DE 41
  can0  00C   [8]  00 13 00 00 00 00 00 00
  can0  000   [8]  22 06 00 00 00 40 05 42
  can0  000   [8]  22 07 00 00 00 40 00 42
  can0  000   [8]  22 11 00 00 93 EB 59 42
  can0  000   [8]  22 12 00 00 EC BA C2 41
  can0  000   [8]  22 13 00 00 A1 65 59 42
  can0  000   [8]  22 14 00 00 AE 6F C3 41
  can0  000   [8]  22 15 00 00 EC BA C2 41
  can0  000   [8]  22 16 00 00 1B 0D 80 3E
  can0  000   [8]  22 17 00 00 2A 9E 5A 42
  can0  000   [8]  22 18 00 00 DE 71 6A 3E
  can0  000   [8]  22 21 00 00 DE 71 6A 3E
  can0  000   [8]  22 2A 00 00 01 08 00 00
  can0  000   [8]  22 2B 00 00 01 18 00 00
  can0  000   [8]  0C 13 00 00 00 00 00 00
  can0  00C   [8]  00 14 00 00 00 00 00 00
  can0  000   [8]  0C 14 00 00 00 00 00 00
  can0  00C   [8]  00 17 00 00 00 00 00 00
  can0  000   [8]  0C 17 00 00 00 00 04 43
  can0  00C   [8]  00 18 00 00 00 00 00 00
  can0  000   [8]  0C 18 00 00 00 00 00 00
  can0  00C   [8]  00 1D 00 00 00 00 00 00
  can0  000   [8]  0C 1D 00 00 00 00 00 00
  can0  00C   [8]  00 1E 00 00 00 00 00 00
  can0  000   [8]  0C 1E 00 00 00 00 80 3F
  can0  00D   [8]  00 06 00 00 00 00 00 00
  can0  000   [8]  0D 06 00 00 F8 DF 1D 42
  can0  00D   [8]  00 08 00 00 00 00 00 00
  can0  000   [8]  0D 08 00 00 B0 88 16 42
  can0  00D   [8]  00 0A 00 00 00 00 00 00
  can0  000   [8]  0D 0A 00 00 50 F3 0E 42
  can0  00D   [8]  00 0C 00 00 00 00 00 00
  can0  000   [8]  0D 0C 00 00 0C 7A 16 42
  can0  00D   [8]  00 11 00 00 00 00 00 00
  can0  000   [8]  0D 11 00 00 00 00 00 00
  can0  00D   [8]  00 12 00 00 00 00 00 00
  can0  000   [8]  0D 12 00 00 00 00 00 00
  can0  00D   [8]  00 15 00 00 00 00 00 00
  can0  000   [8]  0D 15 00 00 00 00 8C 42
  can0  00D   [8]  00 16 00 00 00 00 00 00
  can0  000   [8]  0D 16 00 00 00 00 00 00
  can0  00D   [8]  00 1B 00 00 00 00 00 00
  can0  000   [8]  0D 1B 00 00 00 00 00 00
  can0  00D   [8]  00 1C 00 00 00 00 00 00
  can0  000   [8]  0D 1C 00 00 00 00 80 3F
  can0  00D   [8]  00 07 00 00 00 00 00 00
  can0  000   [8]  0D 07 00 00 F8 DF 1D 42
  can0  00D   [8]  00 09 00 00 00 00 00 00
  can0  000   [8]  0D 09 00 00 10 05 1C 42
  can0  00D   [8]  00 0B 00 00 00 00 00 00
  can0  000   [8]  0D 0B 00 00 28 43 19 42
  can0  00D   [8]  00 0D 00 00 00 00 00 00
  can0  000   [8]  0D 0D 00 00 1C 18 1B 42
  can0  00D   [8]  00 13 00 00 00 00 00 00
  can0  000   [8]  0D 13 00 00 00 00 00 00
  can0  00D   [8]  00 14 00 00 00 00 00 00
  can0  000   [8]  0D 14 00 00 00 00 00 00
  can0  00D   [8]  00 17 00 00 00 00 00 00
  can0  000   [8]  0D 17 00 00 00 00 DA 42
  can0  00D   [8]  00 18 00 00 00 00 00 00
  can0  000   [8]  0D 18 00 00 00 00 00 00
  can0  00D   [8]  00 1D 00 00 00 00 00 00
  can0  000   [8]  0D 1D 00 00 00 00 00 00
  can0  00D   [8]  00 1E 00 00 00 00 00 00
  can0  000   [8]  0D 1E 00 00 00 00 80 3F
  can0  00E   [8]  00 06 00 00 00 00 00 00
  can0  000   [8]  0E 06 00 00 78 BE 1F 42
  can0  000   [8]  22 06 00 00 00 C0 04 42
  can0  000   [8]  22 07 00 00 00 C0 00 42
  can0  000   [8]  22 11 00 00 8C 2E 5A 42
  can0  000   [8]  22 12 00 00 AE 6F C3 41
  can0  000   [8]  22 13 00 00 FB 38 59 42
  can0  000   [8]  22 14 00 00 0F CA C3 41
  can0  000   [8]  22 15 00 00 AE 6F C3 41
  can0  000   [8]  22 16 00 00 22 4A 7B 3E
  can0  000   [8]  22 17 00 00 DF 44 5A 42
  can0  000   [8]  22 18 00 00 F2 41 6F 3E
  can0  000   [8]  22 21 00 00 F2 41 6F 3E
  can0  000   [8]  22 2A 00 00 01 08 00 00
  can0  000   [8]  22 2B 00 00 01 18 00 00
  can0  00E   [8]  00 08 00 00 00 00 00 00
  can0  000   [8]  0E 08 00 00 18 93 22 42
  can0  00E   [8]  00 0A 00 00 00 00 00 00
  can0  000   [8]  0E 0A 00 00 20 2E 15 42
  can0  00E   [8]  00 0C 00 00 00 00 00 00
  can0  000   [8]  0E 0C 00 00 C0 99 ED 41
  can0  00E   [8]  00 11 00 00 00 00 00 00
  can0  000   [8]  0E 11 00 00 00 00 00 00
  can0  00E   [8]  00 12 00 00 00 00 00 00
  can0  000   [8]  0E 12 00 00 00 00 00 00
  can0  00E   [8]  00 15 00 00 00 00 00 00
  can0  000   [8]  0E 15 00 00 00 00 09 43
  can0  00E   [8]  00 16 00 00 00 00 00 00
  can0  000   [8]  0E 16 00 00 00 00 00 00
  can0  00E   [8]  00 1B 00 00 00 00 00 00
  can0  000   [8]  0E 1B 00 00 00 00 00 00
  can0  00E   [8]  00 1C 00 00 00 00 00 00
  can0  000   [8]  0E 1C 00 00 00 00 80 3F
  can0  00E   [8]  00 07 00 00 00 00 00 00
  can0  000   [8]  0E 07 00 00 80 46 1F 42
  can0  00E   [8]  00 09 00 00 00 00 00 00
  can0  000   [8]  0E 09 00 00 E8 68 1D 42
  can0  00E   [8]  00 0B 00 00 00 00 00 00
  can0  000   [8]  0E 0B 00 00 18 FE 07 42
  can0  00E   [8]  00 0D 00 00 00 00 00 00
  can0  000   [8]  0E 0D 00 00 70 CA 19 42
  can0  00E   [8]  00 13 00 00 00 00 00 00
  can0  000   [8]  0E 13 00 00 00 00 00 00
  can0  00E   [8]  00 14 00 00 00 00 00 00
  can0  000   [8]  0E 14 00 00 00 00 00 00
  can0  00E   [8]  00 17 00 00 00 00 00 00
  can0  000   [8]  0E 17 00 00 00 00 09 43
  can0  00E   [8]  00 18 00 00 00 00 00 00
  can0  000   [8]  0E 18 00 00 00 00 00 00
  can0  00E   [8]  00 1D 00 00 00 00 00 00
  can0  000   [8]  0E 1D 00 00 00 00 00 00
  can0  00E   [8]  00 1E 00 00 00 00 00 00
  can0  000   [8]  0E 1E 00 00 00 00 80 3F
  can0  00F   [8]  00 06 00 00 00 00 00 00
  can0  000   [8]  0F 06 00 00 80 46 1F 42
  can0  00F   [8]  00 08 00 00 00 00 00 00
  can0  000   [8]  0F 08 00 00 A0 00 24 42
  can0  00F   [8]  00 0A 00 00 00 00 00 00
  can0  000   [8]  0F 0A 00 00 10 05 1C 42
  can0  00F   [8]  00 0C 00 00 00 00 00 00
  can0  000   [8]  0F 0C 00 00 D0 8C 24 42
  can0  00F   [8]  00 11 00 00 00 00 00 00
  can0  000   [8]  0F 11 00 00 00 00 00 00
  can0  00F   [8]  00 12 00 00 00 00 00 00
  can0  000   [8]  22 06 00 00 00 80 06 42
  can0  000   [8]  22 07 00 00 00 00 01 42
  can0  000   [8]  22 11 00 00 E6 01 5A 42
  can0  000   [8]  0F 12 00 00 00 00 00 00
  can0  000   [8]  22 12 00 00 19 A1 C2 41
  can0  000   [8]  22 13 00 00 F4 7B 59 42
  can0  000   [8]  22 14 00 00 0F CA C3 41
  can0  000   [8]  22 15 00 00 19 A1 C2 41
  can0  000   [8]  22 16 00 00 39 45 87 3E
  can0  000   [8]  22 17 00 00 84 71 5A 42
  can0  000   [8]  22 18 00 00 F2 41 6F 3E
  can0  000   [8]  22 21 00 00 F2 41 6F 3E
  can0  000   [8]  22 2A 00 00 01 08 00 00
  can0  000   [8]  22 2B 00 00 01 18 00 00
  can0  00F   [8]  00 15 00 00 00 00 00 00
  can0  000   [8]  0F 15 00 00 00 00 D0 42
  can0  00F   [8]  00 16 00 00 00 00 00 00
  can0  000   [8]  0F 16 00 00 00 00 50 41
  can0  00F   [8]  00 1B 00 00 00 00 00 00
  can0  000   [8]  0F 1B 00 00 00 00 00 00
  can0  00F   [8]  00 1C 00 00 00 00 00 00
  can0  000   [8]  0F 1C 00 00 00 00 80 3F
  can0  00F   [8]  00 07 00 00 00 00 00 00
  can0  000   [8]  0F 07 00 00 C0 CE 1E 42
  can0  00F   [8]  00 09 00 00 00 00 00 00
  can0  000   [8]  0F 09 00 00 10 05 1C 42
  can0  00F   [8]  00 0B 00 00 00 00 00 00
  can0  000   [8]  0F 0B 00 00 10 05 1C 42
  can0  00F   [8]  00 0D 00 00 00 00 00 00
  can0  000   [8]  0F 0D 00 00 AC E8 21 42
  can0  00F   [8]  00 13 00 00 00 00 00 00
  can0  000   [8]  0F 13 00 00 00 00 00 00
  can0  00F   [8]  00 14 00 00 00 00 00 00
  can0  000   [8]  0F 14 00 00 00 00 00 00
  can0  00F   [8]  00 17 00 00 00 00 00 00
  can0  000   [8]  0F 17 00 00 00 00 DE 42
  can0  00F   [8]  00 18 00 00 00 00 00 00
  can0  000   [8]  0F 18 00 00 00 00 00 00
  can0  00F   [8]  00 1D 00 00 00 00 00 00
  can0  000   [8]  0F 1D 00 00 00 00 00 00
  can0  00F   [8]  00 1E 00 00 00 00 00 00
  can0  000   [8]  0F 1E 00 00 00 00 80 3F
  can0  010   [8]  00 06 00 00 00 00 00 00
  can0  000   [8]  10 06 00 00 E8 18 1B 42
  can0  010   [8]  00 08 00 00 00 00 00 00
  can0  000   [8]  10 08 00 00 B8 70 17 42
  can0  010   [8]  00 0A 00 00 00 00 00 00
  can0  000   [8]  10 0A 00 00 48 22 07 42
  can0  010   [8]  00 0C 00 00 00 00 00 00
  can0  000   [8]  10 0C 00 00 40 88 F8 41
  can0  010   [8]  00 11 00 00 00 00 00 00
  can0  000   [8]  10 11 00 00 00 00 00 00
  can0  010   [8]  00 12 00 00 00 00 00 00
  can0  000   [8]  10 12 00 00 00 00 00 00
  can0  010   [8]  00 15 00 00 00 00 00 00
  can0  000   [8]  10 15 00 00 00 00 EC 42
  can0  010   [8]  00 16 00 00 00 00 00 00
  can0  000   [8]  10 16 00 00 00 00 00 00
  can0  010   [8]  00 1B 00 00 00 00 00 00
  can0  000   [8]  10 1B 00 00 00 00 00 00
  can0  010   [8]  00 1C 00 00 00 00 00 00
  can0  000   [8]  10 1C 00 00 00 00 80 3F
  can0  010   [8]  00 07 00 00 00 00 00 00
  can0  000   [8]  10 07 00 00 F8 14 16 42
  can0  010   [8]  00 09 00 00 00 00 00 00
  can0  000   [8]  10 09 00 00 B0 88 16 42
  can0  010   [8]  00 0B 00 00 00 00 00 00
  can0  000   [8]  10 0B 00 00 30 6C 08 42
  can0  000   [8]  22 06 00 00 00 C0 05 42
  can0  000   [8]  22 07 00 00 00 80 00 42
  can0  000   [8]  22 11 00 00 40 D5 59 42
  can0  000   [8]  22 12 00 00 EC BA C2 41
  can0  000   [8]  22 13 00 00 A1 65 59 42
  can0  000   [8]  22 14 00 00 97 7C C3 41
  can0  000   [8]  22 15 00 00 EC BA C2 41
  can0  000   [8]  22 16 00 00 1B 0D 80 3E
  can0  000   [8]  22 17 00 00 32 5B 5A 42
  can0  000   [8]  22 18 00 00 DE 71 6A 3E
  can0  000   [8]  22 21 00 00 DE 71 6A 3E
  can0  000   [8]  22 2A 00 00 01 08 00 00
  can0  000   [8]  22 2B 00 00 01 18 00 00
  can0  010   [8]  00 0D 00 00 00 00 00 00
  can0  000   [8]  10 0D 00 00 88 46 FD 41
  can0  010   [8]  00 13 00 00 00 00 00 00
  can0  000   [8]  10 13 00 00 00 00 00 00
  can0  010   [8]  00 14 00 00 00 00 00 00
  can0  000   [8]  10 14 00 00 00 00 00 00
  can0  010   [8]  00 17 00 00 00 00 00 00
  can0  000   [8]  10 17 00 00 00 00 15 43
  can0  010   [8]  00 18 00 00 00 00 00 00
  can0  000   [8]  10 18 00 00 00 00 10 41
  can0  010   [8]  00 1D 00 00 00 00 00 00
  can0  000   [8]  10 1D 00 00 00 00 00 00
  can0  010   [8]  00 1E 00 00 00 00 00 00
  can0  000   [8]  10 1E 00 00 00 00 80 3F
  can0  011   [8]  00 06 00 00 00 00 00 00
  can0  000   [8]  11 06 00 00 40 57 1E 42
  can0  011   [8]  00 08 00 00 00 00 00 00
  can0  000   [8]  11 08 00 00 10 AF 20 42
  can0  011   [8]  00 0A 00 00 00 00 00 00
  can0  000   [8]  11 0A 00 00 28 C2 0C 42
  can0  011   [8]  00 0C 00 00 00 00 00 00
  can0  000   [8]  11 0C 00 00 44 90 2E 42
  can0  011   [8]  00 11 00 00 00 00 00 00
  can0  000   [8]  11 11 00 00 00 00 00 00
  can0  011   [8]  00 12 00 00 00 00 00 00
  can0  000   [8]  11 12 00 00 00 00 00 00
  can0  011   [8]  00 15 00 00 00 00 00 00
  can0  000   [8]  11 15 00 00 00 00 EE 42
  can0  011   [8]  00 16 00 00 00 00 00 00
  can0  000   [8]  11 16 00 00 00 00 E0 40
  can0  011   [8]  00 1B 00 00 00 00 00 00
  can0  000   [8]  11 1B 00 00 00 00 00 00
  can0  011   [8]  00 1C 00 00 00 00 00 00
  can0  000   [8]  11 1C 00 00 00 00 80 3F
  can0  011   [8]  00 07 00 00 00 00 00 00
  can0  000   [8]  11 07 00 00 C0 CE 1E 42
  can0  011   [8]  00 09 00 00 00 00 00 00
  can0  000   [8]  11 09 00 00 F8 7A 24 42
  can0  011   [8]  00 0B 00 00 00 00 00 00
  can0  000   [8]  11 0B 00 00 18 A2 0D 42
  can0  011   [8]  00 0D 00 00 00 00 00 00
  can0  000   [8]  11 0D 00 00 40 68 F4 41
  can0  011   [8]  00 13 00 00 00 00 00 00
  can0  000   [8]  11 13 00 00 00 00 00 00
  can0  011   [8]  00 14 00 00 00 00 00 00
  can0  000   [8]  11 14 00 00 00 00 00 00
  can0  011   [8]  00 17 00 00 00 00 00 00
  can0  000   [8]  11 17 00 00 00 00 11 43
  can0  011   [8]  00 18 00 00 00 00 00 00
  can0  000   [8]  11 18 00 00 00 00 00 00
  can0  000   [8]  22 06 00 00 00 40 05 42
  can0  000   [8]  22 07 00 00 00 00 01 42
  can0  000   [8]  22 11 00 00 E6 01 5A 42
  can0  000   [8]  22 12 00 00 02 AE C2 41
  can0  000   [8]  22 13 00 00 56 0C 59 42
  can0  000   [8]  22 14 00 00 5A 31 C4 41
  can0  000   [8]  22 15 00 00 02 AE C2 41
  can0  000   [8]  22 16 00 00 25 75 82 3E
  can0  000   [8]  22 17 00 00 D7 87 5A 42
  can0  011   [8]  00 1D 00 00 00 00 00 00
  can0  000   [8]  11 1D 00 00 00 00 00 00
  can0  000   [8]  22 18 00 00 F2 41 6F 3E
  can0  000   [8]  22 21 00 00 F2 41 6F 3E
  can0  000   [8]  22 2A 00 00 01 08 00 00
  can0  000   [8]  22 2B 00 00 01 18 00 00
  can0  011   [8]  00 1E 00 00 00 00 00 00
  can0  000   [8]  11 1E 00 00 00 00 80 3F
  can0  000   [8]  22 06 00 00 00 40 06 42
  can0  000   [8]  22 07 00 00 00 00 01 42
  can0  000   [8]  22 11 00 00 E6 01 5A 42
  can0  000   [8]  22 12 00 00 19 A1 C2 41
  can0  000   [8]  22 13 00 00 A1 65 59 42
  can0  000   [8]  22 14 00 00 32 D9 C4 41
  can0  000   [8]  22 15 00 00 19 A1 C2 41
  can0  000   [8]  22 16 00 00 20 41 81 3E
  can0  000   [8]  22 17 00 00 2A 9E 5A 42
  can0  000   [8]  22 18 00 00 F2 41 6F 3E
  can0  000   [8]  22 21 00 00 F2 41 6F 3E
  can0  000   [8]  22 2A 00 00 01 08 00 00
  can0  000   [8]  22 2B 00 00 01 18 00 00
  can0  000   [8]  22 06 00 00 00 40 06 42
  can0  000   [8]  22 07 00 00 00 40 03 42
  can0  000   [8]  22 11 00 00 39 18 5A 42
  can0  000   [8]  22 12 00 00 D5 C7 C2 41
  can0  000   [8]  22 13 00 00 A1 65 59 42
  can0  000   [8]  22 14 00 00 CB F0 C3 41
  can0  000   [8]  22 15 00 00 D5 C7 C2 41
  can0  000   [8]  22 16 00 00 20 41 81 3E
  can0  000   [8]  22 17 00 00 2A 9E 5A 42
  can0  000   [8]  22 18 00 00 E8 D9 6C 3E
  can0  000   [8]  22 21 00 00 E8 D9 6C 3E
  can0  000   [8]  22 2A 00 00 01 08 00 00
  can0  000   [8]  22 2B 00 00 01 18 00 00
  can0  000   [8]  22 06 00 00 00 80 07 42
  can0  000   [8]  22 07 00 00 00 40 03 42
  can0  000   [8]  22 11 00 00 39 18 5A 42
  can0  000   [8]  22 12 00 00 D5 C7 C2 41
  can0  000   [8]  22 13 00 00 4E 4F 59 42
  can0  000   [8]  22 14 00 00 53 A3 C3 41
  can0  000   [8]  22 15 00 00 D5 C7 C2 41
  can0  000   [8]  22 16 00 00 20 41 81 3E
  can0  000   [8]  22 17 00 00 32 5B 5A 42
  can0  000   [8]  22 18 00 00 DE 71 6A 3E
  can0  000   [8]  22 21 00 00 DE 71 6A 3E
  can0  000   [8]  22 2A 00 00 01 08 00 00
  can0  000   [8]  22 2B 00 00 01 18 00 00
  can0  000   [8]  22 06 00 00 00 C0 08 42
  can0  000   [8]  22 07 00 00 00 C0 04 42
  can0  000   [8]  22 11 00 00 E6 01 5A 42
  can0  000   [8]  22 12 00 00 7A FB C2 41
  can0  000   [8]  22 13 00 00 FB 38 59 42
  can0  000   [8]  22 14 00 00 CB F0 C3 41
  can0  000   [8]  22 15 00 00 7A FB C2 41
  can0  000   [8]  22 16 00 00 25 75 82 3E
  can0  000   [8]  22 17 00 00 32 5B 5A 42
  can0  000   [8]  22 18 00 00 E8 D9 6C 3E
  can0  000   [8]  22 21 00 00 E8 D9 6C 3E
  can0  000   [8]  22 2A 00 00 01 08 00 00
  can0  000   [8]  22 2B 00 00 01 18 00 00
  can0  000   [8]  22 06 00 00 00 40 09 42
  can0  000   [8]  22 07 00 00 00 00 03 42
  can0  000   [8]  22 11 00 00 40 D5 59 42
  can0  000   [8]  22 12 00 00 BD D4 C2 41
  can0  000   [8]  22 13 00 00 FB 38 59 42
  can0  000   [8]  22 14 00 00 26 BD C3 41
  can0  000   [8]  22 15 00 00 BD D4 C2 41
  can0  000   [8]  22 16 00 00 20 41 81 3E
  can0  000   [8]  22 17 00 00 D7 87 5A 42
  can0  000   [8]  22 18 00 00 E8 D9 6C 3E
  can0  000   [8]  22 21 00 00 E8 D9 6C 3E
  can0  000   [8]  22 2A 00 00 01 08 00 00
  can0  000   [8]  22 2B 00 00 01 18 00 00
  can0  000   [8]  22 06 00 00 00 40 07 42
  can0  000   [8]  22 07 00 00 00 00 05 42
  can0  000   [8]  22 11 00 00 39 18 5A 42
  can0  000   [8]  22 12 00 00 BD D4 C2 41
  can0  000   [8]  22 13 00 00 FB 38 59 42
  can0  000   [8]  22 14 00 00 87 17 C4 41
  can0  000   [8]  22 15 00 00 BD D4 C2 41
  can0  000   [8]  22 16 00 00 2A A9 83 3E
  can0  000   [8]  22 17 00 00 DF 44 5A 42
  can0  000   [8]  22 18 00 00 F2 41 6F 3E
  can0  000   [8]  22 21 00 00 F2 41 6F 3E
  can0  000   [8]  22 2A 00 00 01 08 00 00
  can0  000   [8]  22 2B 00 00 01 18 00 00
  can0  000   [8]  22 06 00 00 00 00 09 42
  can0  000   [8]  22 07 00 00 00 00 05 42
  can0  000   [8]  22 11 00 00 8C 2E 5A 42
  can0  000   [8]  22 12 00 00 5C 7A C2 41
  can0  000   [8]  22 13 00 00 F4 7B 59 42
  can0  000   [8]  22 14 00 00 80 89 C3 41
  can0  000   [8]  22 15 00 00 5C 7A C2 41
  can0  000   [8]  22 16 00 00 20 41 81 3E
  can0  000   [8]  22 17 00 00 84 71 5A 42
  can0  000   [8]  22 18 00 00 F2 41 6F 3E
  can0  000   [8]  22 21 00 00 F2 41 6F 3E
  can0  000   [8]  22 2A 00 00 01 08 00 00
  can0  000   [8]  22 2B 00 00 01 18 00 00
  can0  000   [8]  22 06 00 00 00 C0 09 42
  can0  000   [8]  22 07 00 00 00 00 04 42
  can0  000   [8]  22 11 00 00 40 D5 59 42
  can0  000   [8]  22 12 00 00 02 AE C2 41
  can0  000   [8]  22 13 00 00 A1 65 59 42
  can0  000   [8]  22 14 00 00 E1 E3 C3 41
  can0  000   [8]  22 15 00 00 02 AE C2 41
  can0  000   [8]  22 16 00 00 2A A9 83 3E
  can0  000   [8]  22 17 00 00 2A 9E 5A 42
  can0  000   [8]  22 18 00 00 E8 D9 6C 3E
  can0  000   [8]  22 21 00 00 E8 D9 6C 3E
  can0  000   [8]  22 2A 00 00 01 08 00 00
  can0  000   [8]  22 2B 00 00 01 18 00 00
  can0  000   [8]  22 06 00 00 00 40 09 42
  can0  000   [8]  22 07 00 00 00 C0 04 42
  can0  000   [8]  22 11 00 00 DF 44 5A 42
  can0  000   [8]  22 12 00 00 A7 E1 C2 41
  can0  000   [8]  22 13 00 00 03 F6 58 42
  can0  000   [8]  22 14 00 00 F8 D6 C3 41
  can0  000   [8]  22 15 00 00 A7 E1 C2 41
  can0  000   [8]  22 16 00 00 20 41 81 3E
  can0  000   [8]  22 17 00 00 84 71 5A 42
  can0  000   [8]  22 18 00 00 E8 D9 6C 3E
  can0  000   [8]  22 21 00 00 E8 D9 6C 3E
  can0  000   [8]  22 2A 00 00 01 08 00 00
  can0  000   [8]  22 2B 00 00 01 18 00 00
  can0  000   [8]  22 06 00 00 00 C0 0A 42
  can0  000   [8]  22 07 00 00 00 40 06 42
  can0  000   [8]  22 11 00 00 E6 01 5A 42
  can0  000   [8]  22 12 00 00 A7 E1 C2 41
  can0  000   [8]  22 13 00 00 4E 4F 59 42
  can0  000   [8]  22 14 00 00 26 BD C3 41
  can0  000   [8]  22 15 00 00 A7 E1 C2 41
  can0  000   [8]  22 16 00 00 1B 0D 80 3E
  can0  000   [8]  22 17 00 00 32 5B 5A 42
  can0  000   [8]  22 18 00 00 F2 41 6F 3E
  can0  000   [8]  22 21 00 00 F2 41 6F 3E
  can0  000   [8]  22 2A 00 00 01 08 00 00
  can0  000   [8]  22 2B 00 00 01 18 00 00
  can0  000   [8]  22 06 00 00 00 80 0B 42
  can0  000   [8]  22 07 00 00 00 40 07 42
  can0  000   [8]  22 11 00 00 ED BE 59 42
  can0  000   [8]  22 12 00 00 7A FB C2 41
  can0  000   [8]  22 13 00 00 A1 65 59 42
  can0  000   [8]  22 14 00 00 0F CA C3 41
  can0  000   [8]  22 15 00 00 7A FB C2 41
  can0  000   [8]  22 16 00 00 2A A9 83 3E
  can0  000   [8]  22 17 00 00 2A 9E 5A 42
  can0  000   [8]  22 18 00 00 F2 41 6F 3E
  can0  000   [8]  22 21 00 00 F2 41 6F 3E
  can0  000   [8]  22 2A 00 00 01 08 00 00
  can0  000   [8]  22 2B 00 00 01 18 00 00
  can0  000   [8]  22 06 00 00 00 40 0B 42
  can0  000   [8]  22 07 00 00 00 40 07 42
  can0  000   [8]  22 11 00 00 39 18 5A 42
  can0  000   [8]  22 12 00 00 3D B0 C3 41
  can0  000   [8]  22 13 00 00 4E 4F 59 42
  can0  000   [8]  22 14 00 00 3D B0 C3 41
  can0  000   [8]  22 15 00 00 3D B0 C3 41
  can0  000   [8]  22 16 00 00 20 41 81 3E
  can0  000   [8]  22 17 00 00 39 18 5A 42
  can0  000   [8]  22 18 00 00 F2 41 6F 3E
  can0  000   [8]  22 21 00 00 F2 41 6F 3E
  can0  000   [8]  22 2A 00 00 01 08 00 00
  can0  000   [8]  22 2B 00 00 01 18 00 00
  can0  000   [8]  22 06 00 00 00 C0 0B 42
  can0  000   [8]  22 07 00 00 00 00 08 42
  can0  000   [8]  22 11 00 00 8C 2E 5A 42
  can0  000   [8]  22 12 00 00 BD D4 C2 41
  can0  000   [8]  22 13 00 00 F4 7B 59 42
  can0  000   [8]  22 14 00 00 0F CA C3 41
  can0  000   [8]  22 15 00 00 BD D4 C2 41
  can0  000   [8]  22 16 00 00 25 75 82 3E
  can0  000   [8]  22 17 00 00 7D B4 5A 42
  can0  000   [8]  22 18 00 00 E8 D9 6C 3E
  can0  000   [8]  22 21 00 00 E8 D9 6C 3E
  can0  000   [8]  22 2A 00 00 01 08 00 00
  can0  000   [8]  22 2B 00 00 01 18 00 00
  can0  000   [8]  22 06 00 00 00 40 0C 42
  can0  000   [8]  22 07 00 00 00 40 08 42
  can0  000   [8]  22 11 00 00 39 18 5A 42
  can0  000   [8]  22 12 00 00 BD D4 C2 41
  can0  000   [8]  22 13 00 00 4E 4F 59 42
  can0  000   [8]  22 14 00 00 3D B0 C3 41
  can0  000   [8]  22 15 00 00 BD D4 C2 41
  can0  000   [8]  22 16 00 00 25 75 82 3E
  can0  000   [8]  22 17 00 00 32 5B 5A 42
  can0  000   [8]  22 18 00 00 F2 41 6F 3E
  can0  000   [8]  22 21 00 00 F2 41 6F 3E
  can0  000   [8]  22 2A 00 00 01 08 00 00
  can0  000   [8]  22 2B 00 00 01 18 00 00
  can0  000   [8]  22 06 00 00 00 C0 0C 42
  can0  000   [8]  22 07 00 00 00 80 07 42
  can0  000   [8]  22 11 00 00 8C 2E 5A 42
  can0  000   [8]  22 12 00 00 DB 55 C3 41
  can0  000   [8]  22 13 00 00 4E 4F 59 42
  can0  000   [8]  22 14 00 00 3D B0 C3 41
  can0  000   [8]  22 15 00 00 DB 55 C3 41
  can0  000   [8]  22 16 00 00 25 75 82 3E
  can0  000   [8]  22 17 00 00 84 71 5A 42
  can0  000   [8]  22 18 00 00 F2 41 6F 3E
  can0  000   [8]  22 21 00 00 F2 41 6F 3E
  can0  000   [8]  22 2A 00 00 01 08 00 00
  can0  000   [8]  22 2B 00 00 01 18 00 00
  can0  00A   [8]  00 06 00 00 00 00 00 00
  can0  000   [8]  0A 06 00 00 98 2D 1A 42
  can0  000   [8]  22 06 00 00 00 80 0B 42
  can0  000   [8]  22 07 00 00 00 00 07 42
  can0  000   [8]  22 11 00 00 E6 01 5A 42
  can0  000   [8]  22 12 00 00 EC BA C2 41
  can0  000   [8]  22 13 00 00 FB 38 59 42
  can0  000   [8]  22 14 00 00 53 A3 C3 41
  can0  000   [8]  22 15 00 00 EC BA C2 41
  can0  000   [8]  22 16 00 00 25 75 82 3E
  can0  000   [8]  22 17 00 00 8C 2E 5A 42
  can0  000   [8]  22 18 00 00 F2 41 6F 3E
  can0  000   [8]  22 21 00 00 F2 41 6F 3E
  can0  000   [8]  22 2A 00 00 01 08 00 00
  can0  000   [8]  22 2B 00 00 01 18 00 00
  can0  000   [8]  22 06 00 00 00 80 0E 42
  can0  000   [8]  22 07 00 00 00 C0 07 42
  can0  000   [8]  22 11 00 00 F4 7B 59 42
  can0  000   [8]  22 12 00 00 A7 E1 C2 41
  can0  000   [8]  22 13 00 00 A1 65 59 42
  can0  000   [8]  22 14 00 00 CB F0 C3 41
  can0  000   [8]  22 15 00 00 A7 E1 C2 41
  can0  000   [8]  22 16 00 00 1B 0D 80 3E
  can0  000   [8]  22 17 00 00 D7 87 5A 42
  can0  000   [8]  22 18 00 00 F2 41 6F 3E
  can0  000   [8]  22 21 00 00 F2 41 6F 3E
  can0  000   [8]  22 2A 00 00 01 08 00 00
  can0  000   [8]  22 2B 00 00 01 18 00 00
  can0  000   [8]  22 06 00 00 00 00 0D 42
  can0  000   [8]  22 07 00 00 00 80 09 42
  can0  000   [8]  22 11 00 00 32 5B 5A 42
  can0  000   [8]  22 12 00 00 3F F9 C1 41
  can0  000   [8]  22 13 00 00 4E 4F 59 42
  can0  000   [8]  22 14 00 00 CB F0 C3 41
  can0  000   [8]  22 15 00 00 3F F9 C1 41
  can0  000   [8]  22 16 00 00 25 75 82 3E
  can0  000   [8]  22 17 00 00 7D B4 5A 42
  can0  000   [8]  22 18 00 00 F2 41 6F 3E
  can0  000   [8]  22 21 00 00 F2 41 6F 3E
  can0  000   [8]  22 2A 00 00 01 08 00 00
  can0  000   [8]  22 2B 00 00 01 18 00 00
  can0  00A   [8]  00 08 00 00 00 00 00 00
  can0  000   [8]  0A 08 00 00 E0 8E 1B 42
  can0  00A   [8]  00 0A 00 00 00 00 00 00
  can0  000   [8]  0A 0A 00 00 C0 82 0E 42
  can0  00A   [8]  00 0C 00 00 00 00 00 00
  can0  000   [8]  0A 0C 00 00 C8 C8 C4 41
  can0  00A   [8]  00 11 00 00 00 00 00 00
  can0  000   [8]  0A 11 00 00 00 00 00 00
  can0  00A   [8]  00 12 00 00 00 00 00 00
  can0  000   [8]  22 06 00 00 00 80 0D 42
  can0  000   [8]  22 07 00 00 00 80 04 42
  can0  000   [8]  22 11 00 00 DF 44 5A 42
  can0  000   [8]  22 12 00 00 63 08 C3 41
  can0  000   [8]  0A 12 00 00 00 00 00 00
  can0  000   [8]  22 13 00 00 47 92 59 42
  can0  000   [8]  22 14 00 00 50 5A C5 41
  can0  000   [8]  22 15 00 00 63 08 C3 41
  can0  000   [8]  22 16 00 00 20 41 81 3E
  can0  000   [8]  22 17 00 00 84 71 5A 42
  can0  000   [8]  22 18 00 00 E8 D9 6C 3E
  can0  000   [8]  22 21 00 00 E8 D9 6C 3E
  can0  000   [8]  22 2A 00 00 01 08 00 00
  can0  000   [8]  22 2B 00 00 01 18 00 00
  can0  00A   [8]  00 15 00 00 00 00 00 00
  can0  000   [8]  0A 15 00 00 00 00 C6 42
  can0  00A   [8]  00 16 00 00 00 00 00 00
  can0  000   [8]  0A 16 00 00 00 00 80 40
  can0  00A   [8]  00 1B 00 00 00 00 00 00
  can0  000   [8]  0A 1B 00 00 00 00 00 00
  can0  00A   [8]  00 1C 00 00 00 00 00 00
  can0  000   [8]  0A 1C 00 00 00 00 80 3F
  can0  00A   [8]  00 07 00 00 00 00 00 00
  can0  000   [8]  0A 07 00 00 98 2D 1A 42
  can0  00A   [8]  00 09 00 00 00 00 00 00
  can0  000   [8]  0A 09 00 00 00 E5 17 42
  can0  00A   [8]  00 0B 00 00 00 00 00 00
  can0  000   [8]  0A 0B 00 00 80 B7 09 42
  can0  00A   [8]  00 0D 00 00 00 00 00 00
  can0  000   [8]  0A 0D 00 00 78 D8 CA 41
  can0  00A   [8]  00 13 00 00 00 00 00 00
  can0  000   [8]  0A 13 00 00 00 00 00 00
