  can0  00C   [8]  00 0E 00 00 00 00 7A 45
  can0  000   [8]  11 11 00 00 00 00 00 00
  can0  00C   [8]  00 0F 00 00 00 00 7A 45
  can0  000   [8]  11 12 00 00 00 00 00 00
  can0  00D   [8]  00 01 00 00 00 00 00 00
  can0  000   [8]  11 13 00 00 00 00 00 00
  can0  00D   [8]  00 00 00 00 00 00 00 00
  can0  000   [8]  11 14 00 00 00 00 00 00
  can0  000   [8]  11 15 00 00 00 00 00 00
  can0  000   [8]  11 16 00 00 00 00 00 00
  can0  000   [8]  11 17 00 00 00 00 AE 42
  can0  000   [8]  11 18 00 00 00 00 00 00
  can0  000   [8]  11 1B 00 00 00 00 80 3F
  can0  000   [8]  11 1C 00 00 00 00 80 3F
  can0  000   [8]  11 1D 00 00 00 00 00 00
  can0  000   [8]  11 1E 00 00 00 00 00 00
  can0  000   [8]  11 21 00 00 E3 7A 05 00
  can0  000   [8]  11 06 00 00 C8 28 11 42
  can0  00D   [8]  00 20 00 00 00 00 00 00
  can0  000   [8]  11 07 00 00 10 58 FD 41
  can0  000   [8]  11 08 00 00 C8 62 13 42
  can0  000   [8]  11 09 00 00 80 92 04 42
  can0  000   [8]  11 0A 00 00 E0 E2 0B 42
  can0  000   [8]  11 0B 00 00 40 04 0B 42
  can0  00D   [8]  00 02 00 00 00 00 00 00
  can0  000   [8]  11 0C 00 00 E2 73 4D 42
  can0  00D   [8]  00 03 00 00 00 00 00 00
  can0  000   [8]  11 0D 00 00 80 B2 06 42
  can0  00D   [8]  00 10 00 00 00 00 00 00
  can0  000   [8]  11 11 00 00 00 00 00 00
  can0  00D   [8]  00 0E 00 00 00 00 7A 45
  can0  000   [8]  11 12 00 00 00 00 00 00
  can0  00D   [8]  00 0F 00 00 00 00 7A 45
  can0  000   [8]  11 13 00 00 00 00 00 00
  can0  00E   [8]  00 01 00 00 00 00 00 00
  can0  000   [8]  11 14 00 00 00 00 00 00
  can0  000   [8]  11 15 00 00 00 00 00 00
  can0  000   [8]  11 16 00 00 00 00 00 00
  can0  000   [8]  11 17 00 00 00 00 AE 42
  can0  000   [8]  11 18 00 00 00 00 00 00
  can0  000   [8]  11 1B 00 00 00 00 80 3F
  can0  00E   [8]  00 00 00 00 00 00 00 00
  can0  000   [8]  11 1C 00 00 00 00 80 3F
  can0  000   [8]  11 1D 00 00 00 00 00 00
  can0  000   [8]  11 1E 00 00 00 00 00 00
  can0  000   [8]  11 21 00 00 E7 7A 05 00
  can0  000   [8]  11 06 00 00 C8 28 11 42
  can0  000   [8]  11 07 00 00 10 58 FD 41
  can0  000   [8]  11 08 00 00 C8 62 13 42
  can0  000   [8]  11 09 00 00 80 92 04 42
  can0  000   [8]  11 0A 00 00 E0 E2 0B 42
  can0  000   [8]  11 0B 00 00 40 04 0B 42
  can0  00E   [8]  00 20 00 00 00 00 00 00
  can0  000   [8]  11 0C 00 00 AE 25 4D 42
  can0  00E   [8]  00 02 00 00 00 00 00 00
  can0  000   [8]  11 0D 00 00 24 29 08 42
  can0  00E   [8]  00 03 00 00 00 00 00 00
  can0  000   [8]  11 11 00 00 00 00 00 00
  can0  00E   [8]  00 10 00 00 00 00 00 00
  can0  000   [8]  11 12 00 00 00 00 00 00
  can0  00E   [8]  00 0E 00 00 00 00 7A 45
  can0  000   [8]  11 13 00 00 00 00 00 00
  can0  00E   [8]  00 0F 00 00 00 00 7A 45
  can0  00F   [8]  00 01 00 00 00 00 00 00
  can0  000   [8]  11 14 00 00 00 00 00 00
  can0  000   [8]  11 15 00 00 00 00 00 00
  can0  000   [8]  11 16 00 00 00 00 00 00
  can0  000   [8]  11 17 00 00 00 00 AE 42
  can0  000   [8]  11 18 00 00 00 00 00 00
  can0  000   [8]  11 1B 00 00 00 00 80 3F
  can0  000   [8]  11 1C 00 00 00 00 80 3F
  can0  000   [8]  11 1D 00 00 00 00 00 00
  can0  000   [8]  11 1E 00 00 00 00 00 00
  can0  000   [8]  11 21 00 00 EB 7A 05 00
  can0  000   [8]  11 06 00 00 C8 28 11 42
  can0  000   [8]  11 07 00 00 10 58 FD 41
  can0  000   [8]  11 08 00 00 C8 62 13 42
  can0  000   [8]  11 09 00 00 80 92 04 42
  can0  000   [8]  11 0A 00 00 68 52 0C 42
  can0  000   [8]  11 0B 00 00 40 04 0B 42
  can0  00F   [8]  00 00 00 00 00 00 00 00
  can0  000   [8]  11 0C 00 00 FE 59 4D 42
  can0  00F   [8]  00 20 00 00 00 00 00 00
  can0  000   [8]  11 0D 00 00 EC 2F 07 42
  can0  00F   [8]  00 02 00 00 00 00 00 00
  can0  000   [8]  11 11 00 00 00 00 00 00
  can0  00F   [8]  00 03 00 00 00 00 00 00
  can0  000   [8]  22 06 00 00 00 00 08 42
  can0  000   [8]  22 07 00 00 00 80 01 42
  can0  000   [8]  22 11 00 00 96 80 50 42
  can0  000   [8]  22 12 00 00 1F 2F C3 41
  can0  000   [8]  22 13 00 00 AC B7 4F 42
  can0  000   [8]  22 14 00 00 50 5A C5 41
  can0  000   [8]  22 15 00 00 1F 2F C3 41
  can0  000   [8]  22 16 00 00 C2 86 E7 3E
  can0  000   [8]  22 17 00 00 E2 D9 50 42
  can0  000   [8]  22 18 00 00 1B 9E BE 3E
  can0  000   [8]  22 21 00 00 1B 9E BE 3E
  can0  000   [8]  22 2A 00 00 01 18 00 00
  can0  000   [8]  22 2B 00 00 01 18 00 00
  can0  000   [8]  11 12 00 00 00 00 00 00
  can0  00F   [8]  00 10 00 00 00 00 00 00
  can0  00F   [8]  00 0E 00 00 00 00 7A 45
  can0  000   [8]  11 13 00 00 00 00 00 00
  can0  00F   [8]  00 0F 00 00 00 00 7A 45
  can0  000   [8]  11 14 00 00 00 00 00 00
  can0  000   [8]  11 15 00 00 00 00 00 00
  can0  000   [8]  11 16 00 00 00 00 00 00
  can0  000   [8]  11 17 00 00 00 00 AE 42
  can0  000   [8]  11 18 00 00 00 00 00 00
  can0  000   [8]  11 1B 00 00 00 00 80 3F
  can0  000   [8]  11 1C 00 00 00 00 80 3F
  can0  000   [8]  11 1D 00 00 00 00 00 00
  can0  000   [8]  11 1E 00 00 00 00 00 00
  can0  000   [8]  11 21 00 00 F0 7A 05 00
  can0  000   [8]  11 06 00 00 C8 28 11 42
  can0  000   [8]  11 07 00 00 10 58 FD 41
  can0  000   [8]  11 08 00 00 C8 62 13 42
  can0  000   [8]  11 09 00 00 80 92 04 42
  can0  000   [8]  11 0A 00 00 68 52 0C 42
  can0  000   [8]  11 0B 00 00 40 04 0B 42
  can0  010   [8]  00 01 00 00 00 00 00 00
  can0  000   [8]  11 0C 00 00 06 51 4D 42
  can0  010   [8]  00 00 00 00 00 00 00 00
  can0  000   [8]  11 0D 00 00 D0 AC 07 42
  can0  010   [8]  00 20 00 00 00 00 00 00
  can0  000   [8]  11 11 00 00 00 00 00 00
  can0  010   [8]  00 02 00 00 00 00 00 00
  can0  000   [8]  22 06 00 00 00 40 08 42
  can0  000   [8]  22 07 00 00 00 00 03 42
  can0  000   [8]  22 11 00 00 35 F0 50 42
  can0  000   [8]  22 12 00 00 B8 46 C2 41
  can0  000   [8]  22 13 00 00 FF CD 4F 42
  can0  000   [8]  22 14 00 00 AE 6F C3 41
  can0  000   [8]  22 15 00 00 B8 46 C2 41
  can0  000   [8]  22 16 00 00 C2 86 E7 3E
  can0  000   [8]  22 17 00 00 E2 D9 50 42
  can0  000   [8]  22 18 00 00 25 06 C1 3E
  can0  000   [8]  22 21 00 00 25 06 C1 3E
  can0  000   [8]  22 2A 00 00 01 18 00 00
  can0  000   [8]  22 2B 00 00 01 18 00 00
  can0  00A   [8]  00 06 00 00 00 00 00 00
  can0  000   [8]  0A 06 00 00 48 22 07 42
  can0  00A   [8]  00 08 00 00 00 00 00 00
  can0  000   [8]  0A 08 00 00 80 DA 08 42
  can0  00A   [8]  00 0A 00 00 00 00 00 00
  can0  000   [8]  0A 0A 00 00 18 A2 0D 42
  can0  00A   [8]  00 0C 00 00 00 00 00 00
  can0  000   [8]  0A 0C 00 00 D0 30 E8 41
  can0  00A   [8]  00 11 00 00 00 00 00 00
  can0  000   [8]  0A 11 00 00 00 C8 97 45
  can0  000   [8]  22 06 00 00 00 C0 07 42
  can0  000   [8]  22 07 00 00 00 C0 01 42
  can0  000   [8]  22 11 00 00 E9 96 50 42
  can0  000   [8]  22 12 00 00 46 87 C2 41
  can0  000   [8]  22 13 00 00 FF CD 4F 42
  can0  000   [8]  22 14 00 00 3D B0 C3 41
  can0  000   [8]  22 15 00 00 46 87 C2 41
  can0  000   [8]  22 16 00 00 C6 BA E8 3E
  can0  000   [8]  22 17 00 00 DB 1C 51 42
  can0  000   [8]  22 18 00 00 29 3A C2 3E
  can0  000   [8]  22 21 00 00 29 3A C2 3E
  can0  000   [8]  22 2A 00 00 01 18 00 00
  can0  000   [8]  22 2B 00 00 01 18 00 00
  can0  00A   [8]  00 12 00 00 00 00 00 00
  can0  000   [8]  0A 12 00 00 00 80 9C 45
  can0  00A   [8]  00 15 00 00 00 00 00 00
  can0  000   [8]  0A 15 00 00 00 00 00 00
  can0  00A   [8]  00 16 00 00 00 00 00 00
  can0  000   [8]  0A 16 00 00 00 00 00 00
  can0  00A   [8]  00 1B 00 00 00 00 00 00
  can0  000   [8]  0A 1B 00 00 00 00 80 3F
  can0  00A   [8]  00 1C 00 00 00 00 00 00
  can0  000   [8]  0A 1C 00 00 00 00 80 3F
  can0  00A   [8]  00 07 00 00 00 00 00 00
  can0  000   [8]  0A 07 00 00 80 92 04 42
  can0  00A   [8]  00 09 00 00 00 00 00 00
  can0  000   [8]  0A 09 00 00 38 E0 02 42
  can0  00A   [8]  00 0B 00 00 00 00 00 00
  can0  000   [8]  0A 0B 00 00 18 FE 07 42
  can0  00A   [8]  00 0D 00 00 00 00 00 00
  can0  000   [8]  0A 0D 00 00 28 C5 F3 41
  can0  00A   [8]  00 13 00 00 00 00 00 00
  can0  000   [8]  0A 13 00 00 00 78 99 45
  can0  00A   [8]  00 14 00 00 00 00 00 00
  can0  000   [8]  0A 14 00 00 00 D0 98 45
  can0  00A   [8]  00 17 00 00 00 00 00 00
  can0  000   [8]  0A 17 00 00 00 00 00 00
  can0  00A   [8]  00 18 00 00 00 00 00 00
  can0  000   [8]  0A 18 00 00 00 00 00 00
  can0  00A   [8]  00 1D 00 00 00 00 00 00
  can0  000   [8]  0A 1D 00 00 00 00 80 3F
  can0  00A   [8]  00 1E 00 00 00 00 00 00
  can0  000   [8]  0A 1E 00 00 00 00 80 3F
  can0  00B   [8]  00 06 00 00 00 00 00 00
  can0  000   [8]  0B 06 00 00 20 30 01 42
  can0  00B   [8]  00 08 00 00 00 00 00 00
  can0  000   [8]  0B 08 00 00 70 FF 04 42
  can0  00B   [8]  00 0A 00 00 00 00 00 00
  can0  000   [8]  0B 0A 00 00 B0 88 16 42
  can0  00B   [8]  00 0C 00 00 00 00 00 00
  can0  000   [8]  0B 0C 00 00 10 D6 07 42
  can0  00B   [8]  00 11 00 00 00 00 00 00
  can0  000   [8]  0B 11 00 00 00 20 99 45
  can0  00B   [8]  00 12 00 00 00 00 00 00
  can0  000   [8]  0B 12 00 00 00 00 84 45
  can0  00B   [8]  00 15 00 00 00 00 00 00
  can0  000   [8]  0B 15 00 00 00 00 00 00
  can0  00B   [8]  00 16 00 00 00 00 00 00
  can0  000   [8]  0B 16 00 00 00 00 00 00
  can0  00B   [8]  00 1B 00 00 00 00 00 00
  can0  000   [8]  0B 1B 00 00 00 00 80 3F
  can0  00B   [8]  00 1C 00 00 00 00 00 00
  can0  000   [8]  0B 1C 00 00 00 00 80 3F
  can0  00B   [8]  00 07 00 00 00 00 00 00
  can0  000   [8]  0B 07 00 00 80 B7 09 42
  can0  00B   [8]  00 09 00 00 00 00 00 00
  can0  000   [8]  0B 09 00 00 40 04 0B 42
  can0  00B   [8]  00 0B 00 00 00 00 00 00
  can0  000   [8]  0B 0B 00 00 78 73 0B 42
  can0  00B   [8]  00 0D 00 00 00 00 00 00
  can0  00B   [8]  00 13 00 00 00 00 00 00
  can0  00B   [8]  00 14 00 00 00 00 00 00
  can0  00B   [8]  00 17 00 00 00 00 00 00
  can0  00B   [8]  00 18 00 00 00 00 00 00
  can0  00B   [8]  00 1D 00 00 00 00 00 00
  can0  00B   [8]  00 1E 00 00 00 00 00 00
  can0  00C   [8]  00 06 00 00 00 00 00 00
  can0  000   [8]  0C 06 00 00 50 F3 0E 42
  can0  00C   [8]  00 08 00 00 00 00 00 00
  can0  000   [8]  0C 08 00 00 40 04 0B 42
  can0  00C   [8]  00 0A 00 00 00 00 00 00
  can0  000   [8]  0C 0A 00 00 48 26 0A 42
  can0  00C   [8]  00 0C 00 00 00 00 00 00
  can0  00C   [8]  00 11 00 00 00 00 00 00
  can0  00C   [8]  00 12 00 00 00 00 00 00
  can0  00C   [8]  00 15 00 00 00 00 00 00
  can0  00C   [8]  00 16 00 00 00 00 00 00
  can0  00C   [8]  00 1B 00 00 00 00 00 00
  can0  00C   [8]  00 1C 00 00 00 00 00 00
  can0  00C   [8]  00 07 00 00 00 00 00 00
  can0  000   [8]  0B 0D 00 00 D6 CF 46 42
  can0  00C   [8]  00 09 00 00 00 00 00 00
  can0  000   [8]  0B 13 00 00 00 B0 9B 45
  can0  00C   [8]  00 0B 00 00 00 00 00 00
  can0  00C   [8]  00 0D 00 00 00 00 00 00
  can0  00C   [8]  00 13 00 00 00 00 00 00
  can0  00C   [8]  00 14 00 00 00 00 00 00
  can0  00C   [8]  00 17 00 00 00 00 00 00
  can0  00C   [8]  00 18 00 00 00 00 00 00
  can0  00C   [8]  00 1D 00 00 00 00 00 00
  can0  00C   [8]  00 1E 00 00 00 00 00 00
  can0  00D   [8]  00 06 00 00 00 00 00 00
  can0  000   [8]  0D 06 00 00 38 7E 12 42
  can0  000   [8]  0C 0C 00 00 08 3B 4A 42
  can0  000   [8]  0C 11 00 00 00 18 99 45
  can0  00D   [8]  00 08 00 00 00 00 00 00
  can0  000   [8]  0D 08 00 00 28 95 0A 42
  can0  00D   [8]  00 0A 00 00 00 00 00 00
  can0  000   [8]  0D 0A 00 00 10 46 10 42
  can0  00D   [8]  00 0C 00 00 00 00 00 00
  can0  00D   [8]  00 11 00 00 00 00 00 00
  can0  00D   [8]  00 12 00 00 00 00 00 00
  can0  00D   [8]  00 15 00 00 00 00 00 00
  can0  00D   [8]  00 16 00 00 00 00 00 00
  can0  00D   [8]  00 1B 00 00 00 00 00 00
  can0  00D   [8]  00 1C 00 00 00 00 00 00
  can0  00D   [8]  00 07 00 00 00 00 00 00
  can0  00D   [8]  00 09 00 00 00 00 00 00
  can0  00D   [8]  00 0B 00 00 00 00 00 00
  can0  00D   [8]  00 0D 00 00 00 00 00 00
  can0  00D   [8]  00 13 00 00 00 00 00 00
  can0  00D   [8]  00 14 00 00 00 00 00 00
  can0  00D   [8]  00 17 00 00 00 00 00 00
  can0  00D   [8]  00 18 00 00 00 00 00 00
  can0  00D   [8]  00 1D 00 00 00 00 00 00
  can0  00D   [8]  00 1E 00 00 00 00 00 00
  can0  000   [8]  0D 0C 00 00 14 33 44 42
  can0  000   [8]  0D 11 00 00 00 B0 9D 45
  can0  00E   [8]  00 06 00 00 00 00 00 00
  can0  000   [8]  0E 06 00 00 48 22 07 42
  can0  00E   [8]  00 08 00 00 00 00 00 00
  can0  000   [8]  0E 08 00 00 E8 48 09 42
  can0  00E   [8]  00 0A 00 00 00 00 00 00
  can0  000   [8]  0E 0A 00 00 68 F0 12 42
  can0  00E   [8]  00 0C 00 00 00 00 00 00
  can0  00E   [8]  00 11 00 00 00 00 00 00
  can0  00E   [8]  00 12 00 00 00 00 00 00
  can0  00E   [8]  00 15 00 00 00 00 00 00
  can0  00E   [8]  00 16 00 00 00 00 00 00
  can0  00E   [8]  00 1B 00 00 00 00 00 00
  can0  00E   [8]  00 1C 00 00 00 00 00 00
  can0  00E   [8]  00 07 00 00 00 00 00 00
  can0  00E   [8]  00 09 00 00 00 00 00 00
  can0  00E   [8]  00 0B 00 00 00 00 00 00
  can0  00E   [8]  00 0D 00 00 00 00 00 00
  can0  00E   [8]  00 13 00 00 00 00 00 00
  can0  00E   [8]  00 14 00 00 00 00 00 00
  can0  00E   [8]  00 17 00 00 00 00 00 00
  can0  00E   [8]  00 18 00 00 00 00 00 00
  can0  00E   [8]  00 1D 00 00 00 00 00 00
  can0  00E   [8]  00 1E 00 00 00 00 00 00
  can0  000   [8]  0E 0C 00 00 38 28 09 42
  can0  00F   [8]  00 06 00 00 00 00 00 00
  can0  000   [8]  0F 06 00 00 68 52 0C 42
  can0  00F   [8]  00 08 00 00 00 00 00 00
  can0  000   [8]  0F 08 00 00 50 B7 10 42
  can0  000   [8]  0E 11 00 00 00 B8 99 45
  can0  00F   [8]  00 0A 00 00 00 00 00 00
  can0  000   [8]  0F 0A 00 00 E0 8E 1B 42
  can0  00F   [8]  00 0C 00 00 00 00 00 00
  can0  00F   [8]  00 11 00 00 00 00 00 00
  can0  00F   [8]  00 12 00 00 00 00 00 00
  can0  00F   [8]  00 15 00 00 00 00 00 00
  can0  00F   [8]  00 16 00 00 00 00 00 00
  can0  00F   [8]  00 1B 00 00 00 00 00 00
  can0  00F   [8]  00 1C 00 00 00 00 00 00
  can0  00F   [8]  00 07 00 00 00 00 00 00
  can0  00F   [8]  00 09 00 00 00 00 00 00
  can0  00F   [8]  00 0B 00 00 00 00 00 00
  can0  00F   [8]  00 0D 00 00 00 00 00 00
  can0  00F   [8]  00 13 00 00 00 00 00 00
  can0  00F   [8]  00 14 00 00 00 00 00 00
  can0  00F   [8]  00 17 00 00 00 00 00 00
  can0  00F   [8]  00 18 00 00 00 00 00 00
  can0  00F   [8]  00 1D 00 00 00 00 00 00
  can0  00F   [8]  00 1E 00 00 00 00 00 00
  can0  010   [8]  00 06 00 00 00 00 00 00
  can0  000   [8]  10 06 00 00 28 C2 0C 42
  can0  000   [8]  0F 0C 00 00 F8 DF 48 42
  can0  010   [8]  00 08 00 00 00 00 00 00
  can0  000   [8]  10 08 00 00 30 6C 08 42
  can0  000   [8]  0F 11 00 00 00 20 96 45
  can0  010   [8]  00 0A 00 00 00 00 00 00
  can0  000   [8]  10 0A 00 00 18 FE 07 42
  can0  010   [8]  00 0C 00 00 00 00 00 00
  can0  010   [8]  00 11 00 00 00 00 00 00
  can0  010   [8]  00 12 00 00 00 00 00 00
  can0  010   [8]  00 15 00 00 00 00 00 00
  can0  010   [8]  00 16 00 00 00 00 00 00
  can0  010   [8]  00 1B 00 00 00 00 00 00
  can0  010   [8]  00 1C 00 00 00 00 00 00
  can0  010   [8]  00 07 00 00 00 00 00 00
  can0  010   [8]  00 09 00 00 00 00 00 00
  can0  010   [8]  00 0B 00 00 00 00 00 00
  can0  010   [8]  00 0D 00 00 00 00 00 00
  can0  010   [8]  00 13 00 00 00 00 00 00
  can0  010   [8]  00 14 00 00 00 00 00 00
  can0  010   [8]  00 17 00 00 00 00 00 00
  can0  010   [8]  00 18 00 00 00 00 00 00
  can0  010   [8]  00 1D 00 00 00 00 00 00
  can0  010   [8]  00 1E 00 00 00 00 00 00
  can0  000   [8]  10 0C 00 00 9C DF 08 42
  can0  011   [8]  00 06 00 00 00 00 00 00
  can0  000   [8]  11 06 00 00 68 9A 11 42
  can0  000   [8]  10 11 00 00 00 68 91 45
  can0  011   [8]  00 08 00 00 00 00 00 00
  can0  000   [8]  11 08 00 00 C8 62 13 42
  can0  011   [8]  00 0A 00 00 00 00 00 00
  can0  000   [8]  11 0A 00 00 68 52 0C 42
  can0  011   [8]  00 0C 00 00 00 00 00 00
  can0  011   [8]  00 11 00 00 00 00 00 00
  can0  011   [8]  00 12 00 00 00 00 00 00
  can0  011   [8]  00 15 00 00 00 00 00 00
  can0  011   [8]  00 16 00 00 00 00 00 00
  can0  011   [8]  00 1B 00 00 00 00 00 00
  can0  011   [8]  00 1C 00 00 00 00 00 00
  can0  011   [8]  00 07 00 00 00 00 00 00
  can0  011   [8]  00 09 00 00 00 00 00 00
  can0  011   [8]  00 0B 00 00 00 00 00 00
  can0  011   [8]  00 0D 00 00 00 00 00 00
  can0  011   [8]  00 13 00 00 00 00 00 00
  can0  011   [8]  00 14 00 00 00 00 00 00
  can0  011   [8]  00 17 00 00 00 00 00 00
  can0  011   [8]  00 18 00 00 00 00 00 00
  can0  011   [8]  00 1D 00 00 00 00 00 00
  can0  011   [8]  00 1E 00 00 00 00 00 00
  can0  000   [8]  11 0C 00 00 26 1D 4D 42
