  can0  00C   [8]  00 02 00 00 00 00 00 00
  can0  00C   [8]  00 03 00 00 00 00 80 00
  can0  00D   [8]  00 01 00 00 00 00 00 00
  can0  00D   [8]  00 00 00 00 00 00 00 00
  can0  00D   [8]  00 20 00 00 00 00 00 00
  can0  00D   [8]  00 02 00 00 00 00 00 00
  can0  00D   [8]  00 03 00 00 00 00 80 00
  can0  00E   [8]  00 01 00 00 00 00 00 00
  can0  00E   [8]  00 00 00 00 00 00 00 00
  can0  00E   [8]  00 20 00 00 00 00 00 00
  can0  00E   [8]  00 02 00 00 00 00 00 00
  can0  00E   [8]  00 03 00 00 00 00 80 00
  can0  00F   [8]  00 01 00 00 00 00 00 00
  can0  00F   [8]  00 00 00 00 00 00 00 00
  can0  00F   [8]  00 20 00 00 00 00 00 00
  can0  00F   [8]  00 02 00 00 00 00 00 00
  can0  00F   [8]  00 03 00 00 00 00 80 00
  can0  010   [8]  00 01 00 00 00 00 00 00
  can0  010   [8]  00 00 00 00 00 00 00 00
  can0  010   [8]  00 20 00 00 00 00 00 00
  can0  010   [8]  00 02 00 00 00 00 00 00
  can0  000   [8]  22 06 00 00 00 40 08 42
  can0  010   [8]  00 03 00 00 00 00 80 00
  can0  000   [8]  22 07 00 00 00 40 04 42
  can0  000   [8]  22 11 00 00 DF 44 5A 42
  can0  000   [8]  22 12 00 00 4D 15 C3 41
  can0  000   [8]  22 13 00 00 9A A8 59 42
  can0  000   [8]  22 14 00 00 26 BD C3 41
  can0  000   [8]  22 15 00 00 4D 15 C3 41
  can0  000   [8]  22 16 00 00 AD D8 1F 3E
  can0  000   [8]  22 17 00 00 76 F7 5A 42
  can0  000   [8]  22 18 00 00 06 12 74 3E
  can0  000   [8]  22 21 00 00 06 12 74 3E
  can0  000   [8]  22 2A 00 00 01 18 00 00
  can0  000   [8]  22 2B 00 00 01 18 00 00
  can0  011   [8]  00 01 00 00 00 00 00 00
  can0  011   [8]  00 00 00 00 00 00 00 00
  can0  011   [8]  00 20 00 00 00 00 00 00
  can0  011   [8]  00 02 00 00 00 00 00 00
  can0  011   [8]  00 03 00 00 00 00 80 00
  can0  000   [8]  22 06 00 00 00 00 09 42
  can0  000   [8]  22 07 00 00 00 00 04 42
  can0  000   [8]  22 11 00 00 2A 9E 5A 42
  can0  000   [8]  22 12 00 00 8A 60 C2 41
  can0  000   [8]  22 13 00 00 ED BE 59 42
  can0  000   [8]  22 14 00 00 53 A3 C3 41
  can0  000   [8]  22 15 00 00 8A 60 C2 41
  can0  000   [8]  22 16 00 00 A3 70 1D 3E
  can0  000   [8]  22 17 00 00 D0 CA 5A 42
  can0  000   [8]  22 18 00 00 7C D0 13 3E
  can0  000   [8]  22 21 00 00 7C D0 13 3E
  can0  000   [8]  22 2A 00 00 01 18 00 00
  can0  000   [8]  22 2B 00 00 01 18 00 00
  can0  000   [8]  22 06 00 00 00 80 08 42
  can0  000   [8]  22 07 00 00 00 C0 03 42
  can0  000   [8]  22 11 00 00 84 71 5A 42
  can0  000   [8]  22 12 00 00 36 22 C3 41
  can0  000   [8]  22 13 00 00 40 D5 59 42
  can0  000   [8]  22 14 00 00 F8 D6 C3 41
  can0  000   [8]  22 15 00 00 36 22 C3 41
  can0  000   [8]  22 16 00 00 A3 70 1D 3E
  can0  000   [8]  22 17 00 00 76 F7 5A 42
  can0  000   [8]  22 18 00 00 7C D0 13 3E
  can0  000   [8]  22 21 00 00 7C D0 13 3E
  can0  000   [8]  22 2A 00 00 01 18 00 00
  can0  000   [8]  22 2B 00 00 01 18 00 00
  can0  000   [8]  22 06 00 00 00 00 09 42
  can0  000   [8]  22 07 00 00 00 C0 04 42
  can0  000   [8]  22 11 00 00 D7 87 5A 42
  can0  000   [8]  22 12 00 00 DB 55 C3 41
  can0  000   [8]  22 13 00 00 ED BE 59 42
  can0  000   [8]  22 14 00 00 0F CA C3 41
  can0  000   [8]  22 15 00 00 DB 55 C3 41
  can0  000   [8]  22 16 00 00 A3 70 1D 3E
  can0  000   [8]  22 17 00 00 1C 24 5B 42
  can0  000   [8]  22 18 00 00 72 68 11 3E
  can0  000   [8]  22 21 00 00 72 68 11 3E
  can0  000   [8]  22 2A 00 00 01 18 00 00
  can0  000   [8]  22 2B 00 00 01 18 00 00
  can0  000   [8]  22 06 00 00 00 00 09 42
  can0  000   [8]  22 07 00 00 00 00 03 42
  can0  000   [8]  22 11 00 00 D7 87 5A 42
  can0  000   [8]  22 12 00 00 73 6D C2 41
  can0  000   [8]  22 13 00 00 9A A8 59 42
  can0  000   [8]  22 14 00 00 0F CA C3 41
  can0  000   [8]  22 15 00 00 73 6D C2 41
  can0  000   [8]  22 16 00 00 AD D8 1F 3E
  can0  000   [8]  22 17 00 00 23 E1 5A 42
  can0  000   [8]  22 18 00 00 72 68 11 3E
  can0  000   [8]  22 21 00 00 72 68 11 3E
  can0  000   [8]  22 2A 00 00 01 18 00 00
  can0  000   [8]  22 2B 00 00 01 18 00 00
  can0  000   [8]  22 06 00 00 00 80 08 42
  can0  000   [8]  22 07 00 00 00 40 03 42
  can0  000   [8]  22 11 00 00 2A 9E 5A 42
  can0  000   [8]  22 12 00 00 56 EC C1 41
  can0  000   [8]  22 13 00 00 93 EB 59 42
  can0  000   [8]  22 14 00 00 F8 D6 C3 41
  can0  000   [8]  22 15 00 00 56 EC C1 41
  can0  000   [8]  22 16 00 00 9A 08 1B 3E
  can0  000   [8]  22 17 00 00 6F 3A 5B 42
  can0  000   [8]  22 18 00 00 72 68 11 3E
  can0  000   [8]  22 21 00 00 72 68 11 3E
  can0  000   [8]  22 2A 00 00 01 18 00 00
  can0  000   [8]  22 2B 00 00 01 18 00 00
  can0  000   [8]  22 06 00 00 00 C0 07 42
  can0  000   [8]  22 07 00 00 00 80 03 42
  can0  000   [8]  22 11 00 00 2A 9E 5A 42
  can0  000   [8]  22 12 00 00 02 AE C2 41
  can0  000   [8]  22 13 00 00 93 EB 59 42
  can0  000   [8]  22 14 00 00 3D B0 C3 41
  can0  000   [8]  22 15 00 00 02 AE C2 41
  can0  000   [8]  22 16 00 00 A3 70 1D 3E
  can0  000   [8]  22 17 00 00 76 F7 5A 42
  can0  000   [8]  22 18 00 00 68 00 0F 3E
  can0  000   [8]  22 21 00 00 68 00 0F 3E
  can0  000   [8]  22 2A 00 00 01 18 00 00
  can0  000   [8]  22 2B 00 00 01 18 00 00
  can0  000   [8]  22 06 00 00 00 00 09 42
  can0  000   [8]  22 07 00 00 00 00 02 42
  can0  000   [8]  22 11 00 00 D7 87 5A 42
  can0  000   [8]  22 12 00 00 02 AE C2 41
  can0  000   [8]  22 13 00 00 9A A8 59 42
  can0  000   [8]  22 14 00 00 F8 D6 C3 41
  can0  000   [8]  22 15 00 00 02 AE C2 41
  can0  000   [8]  22 16 00 00 9A 08 1B 3E
  can0  000   [8]  22 17 00 00 D0 CA 5A 42
  can0  000   [8]  22 18 00 00 72 68 11 3E
  can0  000   [8]  22 21 00 00 72 68 11 3E
  can0  000   [8]  22 2A 00 00 01 18 00 00
  can0  000   [8]  22 2B 00 00 01 18 00 00
  can0  000   [8]  22 06 00 00 00 00 09 42
  can0  000   [8]  22 07 00 00 00 00 03 42
  can0  000   [8]  22 11 00 00 D7 87 5A 42
  can0  000   [8]  22 12 00 00 BD D4 C2 41
  can0  000   [8]  22 13 00 00 93 EB 59 42
  can0  000   [8]  22 14 00 00 0F CA C3 41
  can0  000   [8]  22 15 00 00 BD D4 C2 41
  can0  000   [8]  22 16 00 00 9A 08 1B 3E
  can0  000   [8]  22 17 00 00 76 F7 5A 42
  can0  000   [8]  22 18 00 00 72 68 11 3E
  can0  000   [8]  22 21 00 00 72 68 11 3E
  can0  000   [8]  22 2A 00 00 01 18 00 00
  can0  000   [8]  22 2B 00 00 01 18 00 00
  can0  00A   [8]  00 06 00 00 00 00 00 00
  can0  000   [8]  0A 06 00 00 70 02 FA 41
  can0  000   [8]  22 06 00 00 00 C0 08 42
  can0  000   [8]  22 07 00 00 00 40 03 42
  can0  000   [8]  22 11 00 00 7D B4 5A 42
  can0  000   [8]  22 12 00 00 D5 C7 C2 41
  can0  000   [8]  22 13 00 00 40 D5 59 42
  can0  000   [8]  22 14 00 00 87 17 C4 41
  can0  000   [8]  22 15 00 00 D5 C7 C2 41
  can0  000   [8]  22 16 00 00 A3 70 1D 3E
  can0  000   [8]  22 17 00 00 1C 24 5B 42
  can0  000   [8]  22 18 00 00 72 68 11 3E
  can0  000   [8]  22 21 00 00 72 68 11 3E
  can0  000   [8]  22 2A 00 00 01 18 00 00
  can0  000   [8]  22 2B 00 00 01 18 00 00
  can0  000   [8]  22 06 00 00 00 00 08 42
  can0  000   [8]  22 07 00 00 00 C0 03 42
  can0  000   [8]  22 11 00 00 2A 9E 5A 42
  can0  000   [8]  22 12 00 00 A7 E1 C2 41
  can0  000   [8]  22 13 00 00 ED BE 59 42
  can0  000   [8]  22 14 00 00 B4 FD C3 41
  can0  000   [8]  22 15 00 00 A7 E1 C2 41
  can0  000   [8]  22 16 00 00 A3 70 1D 3E
  can0  000   [8]  22 17 00 00 23 E1 5A 42
  can0  000   [8]  22 18 00 00 72 68 11 3E
  can0  000   [8]  22 21 00 00 72 68 11 3E
  can0  000   [8]  22 2A 00 00 01 18 00 00
  can0  000   [8]  22 2B 00 00 01 18 00 00
  can0  00A   [8]  00 08 00 00 00 00 00 00
  can0  000   [8]  0A 08 00 00 70 02 FA 41
  can0  00A   [8]  00 0A 00 00 00 00 00 00
  can0  000   [8]  0A 0A 00 00 C0 B0 F6 41
  can0  00A   [8]  00 0C 00 00 00 00 00 00
  can0  000   [8]  0A 0C 00 00 D0 52 D0 41
  can0  00A   [8]  00 11 00 00 00 00 00 00
  can0  000   [8]  0A 11 00 00 00 00 00 00
  can0  00A   [8]  00 12 00 00 00 00 00 00
  can0  000   [8]  0A 12 00 00 00 00 00 00
  can0  00A   [8]  00 15 00 00 00 00 00 00
  can0  000   [8]  0A 15 00 00 00 00 00 00
  can0  00A   [8]  00 16 00 00 00 00 00 00
  can0  000   [8]  0A 16 00 00 00 00 00 00
  can0  00A   [8]  00 1B 00 00 00 00 00 00
  can0  000   [8]  0A 1B 00 00 00 00 80 3F
  can0  00A   [8]  00 1C 00 00 00 00 00 00
  can0  000   [8]  0A 1C 00 00 00 00 80 3F
  can0  000   [8]  22 06 00 00 00 80 08 42
  can0  000   [8]  22 07 00 00 00 40 03 42
  can0  000   [8]  22 11 00 00 D7 87 5A 42
  can0  000   [8]  22 12 00 00 90 EE C2 41
  can0  000   [8]  22 13 00 00 47 92 59 42
  can0  000   [8]  22 14 00 00 6A 96 C3 41
  can0  000   [8]  22 15 00 00 90 EE C2 41
  can0  000   [8]  22 16 00 00 A3 70 1D 3E
  can0  000   [8]  22 17 00 00 D7 87 5A 42
  can0  000   [8]  22 18 00 00 72 68 11 3E
  can0  000   [8]  22 21 00 00 72 68 11 3E
  can0  000   [8]  22 2A 00 00 01 18 00 00
  can0  000   [8]  22 2B 00 00 01 18 00 00
  can0  00A   [8]  00 07 00 00 00 00 00 00
  can0  000   [8]  0A 07 00 00 E0 62 F3 41
  can0  00A   [8]  00 09 00 00 00 00 00 00
  can0  000   [8]  0A 09 00 00 00 75 EE 41
  can0  00A   [8]  00 0B 00 00 00 00 00 00
  can0  000   [8]  0A 0B 00 00 20 30 EB 41
  can0  00A   [8]  00 0D 00 00 00 00 00 00
  can0  000   [8]  0A 0D 00 00 30 0B D8 41
  can0  00A   [8]  00 13 00 00 00 00 00 00
  can0  000   [8]  0A 13 00 00 00 00 00 00
  can0  00A   [8]  00 14 00 00 00 00 00 00
  can0  000   [8]  0A 14 00 00 00 00 00 00
  can0  00A   [8]  00 17 00 00 00 00 00 00
  can0  000   [8]  0A 17 00 00 00 00 00 00
  can0  00A   [8]  00 18 00 00 00 00 00 00
  can0  000   [8]  0A 18 00 00 00 00 00 00
  can0  00A   [8]  00 1D 00 00 00 00 00 00
  can0  000   [8]  0A 1D 00 00 00 00 80 3F
  can0  00A   [8]  00 1E 00 00 00 00 00 00
  can0  000   [8]  0A 1E 00 00 00 00 80 3F
  can0  00B   [8]  00 06 00 00 00 00 00 00
  can0  000   [8]  0B 06 00 00 C0 B0 F6 41
  can0  00B   [8]  00 08 00 00 00 00 00 00
  can0  000   [8]  0B 08 00 00 B0 AC FB 41
  can0  00B   [8]  00 0A 00 00 00 00 00 00
  can0  000   [8]  0B 0A 00 00 48 22 07 42
  can0  00B   [8]  00 0C 00 00 00 00 00 00
  can0  000   [8]  0B 0C 00 00 80 DA F0 41
  can0  00B   [8]  00 11 00 00 00 00 00 00
  can0  000   [8]  0B 11 00 00 00 00 00 00
  can0  00B   [8]  00 12 00 00 00 00 00 00
  can0  000   [8]  0B 12 00 00 00 00 00 00
  can0  00B   [8]  00 15 00 00 00 00 00 00
  can0  000   [8]  0B 15 00 00 00 00 00 00
  can0  00B   [8]  00 16 00 00 00 00 00 00
  can0  000   [8]  0B 16 00 00 00 00 00 00
  can0  00B   [8]  00 1B 00 00 00 00 00 00
  can0  000   [8]  0B 1B 00 00 00 00 80 3F
  can0  00B   [8]  00 1C 00 00 00 00 00 00
  can0  000   [8]  0B 1C 00 00 00 00 80 3F
  can0  00B   [8]  00 07 00 00 00 00 00 00
  can0  000   [8]  0B 07 00 00 70 04 FF 41
  can0  00B   [8]  00 09 00 00 00 00 00 00
  can0  000   [8]  0B 09 00 00 20 30 01 42
  can0  00B   [8]  00 0B 00 00 00 00 00 00
  can0  000   [8]  0B 0B 00 00 F0 DC F5 41
  can0  00B   [8]  00 0D 00 00 00 00 00 00
  can0  000   [8]  0B 0D 00 00 98 EE 20 42
  can0  00B   [8]  00 13 00 00 00 00 00 00
  can0  000   [8]  0B 13 00 00 00 00 00 00
  can0  00B   [8]  00 14 00 00 00 00 00 00
  can0  000   [8]  22 06 00 00 00 40 08 42
  can0  000   [8]  22 07 00 00 00 00 04 42
  can0  000   [8]  22 11 00 00 84 71 5A 42
  can0  000   [8]  22 12 00 00 02 AE C2 41
  can0  000   [8]  22 13 00 00 E6 01 5A 42
  can0  000   [8]  22 14 00 00 E1 E3 C3 41
  can0  000   [8]  22 15 00 00 02 AE C2 41
  can0  000   [8]  22 16 00 00 A3 70 1D 3E
  can0  000   [8]  22 17 00 00 76 F7 5A 42
  can0  000   [8]  22 18 00 00 72 68 11 3E
  can0  000   [8]  22 21 00 00 72 68 11 3E
  can0  000   [8]  22 2A 00 00 01 18 00 00
  can0  000   [8]  22 2B 00 00 01 18 00 00
  can0  000   [8]  0B 14 00 00 00 00 00 00
  can0  00B   [8]  00 17 00 00 00 00 00 00
  can0  000   [8]  0B 17 00 00 00 00 00 00
  can0  00B   [8]  00 18 00 00 00 00 00 00
  can0  000   [8]  0B 18 00 00 00 00 00 00
  can0  00B   [8]  00 1D 00 00 00 00 00 00
  can0  000   [8]  0B 1D 00 00 00 00 80 3F
  can0  00B   [8]  00 1E 00 00 00 00 00 00
  can0  000   [8]  0B 1E 00 00 00 00 80 3F
  can0  00C   [8]  00 06 00 00 00 00 00 00
  can0  000   [8]  0C 06 00 00 80 6C 05 42
  can0  00C   [8]  00 08 00 00 00 00 00 00
  can0  000   [8]  0C 08 00 00 F0 9B 01 42
  can0  00C   [8]  00 0A 00 00 00 00 00 00
  can0  000   [8]  0C 0A 00 00 F0 EA F0 41
  can0  00C   [8]  00 0C 00 00 00 00 00 00
  can0  000   [8]  0C 0C 00 00 F0 F8 24 42
  can0  00C   [8]  00 11 00 00 00 00 00 00
  can0  000   [8]  0C 11 00 00 00 00 00 00
  can0  00C   [8]  00 12 00 00 00 00 00 00
  can0  000   [8]  0C 12 00 00 00 00 00 00
  can0  00C   [8]  00 15 00 00 00 00 00 00
  can0  000   [8]  0C 15 00 00 00 00 00 00
  can0  00C   [8]  00 16 00 00 00 00 00 00
  can0  000   [8]  0C 16 00 00 00 00 00 00
  can0  00C   [8]  00 1B 00 00 00 00 00 00
  can0  000   [8]  0C 1B 00 00 00 00 80 3F
  can0  00C   [8]  00 1C 00 00 00 00 00 00
  can0  000   [8]  0C 1C 00 00 00 00 80 3F
  can0  00C   [8]  00 07 00 00 00 00 00 00
  can0  000   [8]  0C 07 00 00 E8 07 02 42
  can0  00C   [8]  00 09 00 00 00 00 00 00
  can0  000   [8]  0C 09 00 00 D0 84 F7 41
  can0  00C   [8]  00 0B 00 00 00 00 00 00
  can0  000   [8]  0C 0B 00 00 F0 DC F5 41
  can0  00C   [8]  00 0D 00 00 00 00 00 00
  can0  000   [8]  0C 0D 00 00 18 F5 E2 41
  can0  00C   [8]  00 13 00 00 00 00 00 00
  can0  000   [8]  0C 13 00 00 00 00 00 00
  can0  00C   [8]  00 14 00 00 00 00 00 00
  can0  000   [8]  0C 14 00 00 00 00 00 00
  can0  00C   [8]  00 17 00 00 00 00 00 00
  can0  000   [8]  0C 17 00 00 00 00 00 00
  can0  00C   [8]  00 18 00 00 00 00 00 00
  can0  000   [8]  0C 18 00 00 00 00 00 00
  can0  00C   [8]  00 1D 00 00 00 00 00 00
  can0  000   [8]  0C 1D 00 00 00 00 80 3F
  can0  00C   [8]  00 1E 00 00 00 00 00 00
  can0  000   [8]  0C 1E 00 00 00 00 80 3F
  can0  00D   [8]  00 06 00 00 00 00 00 00
  can0  000   [8]  0D 06 00 00 80 6C 05 42
  can0  00D   [8]  00 08 00 00 00 00 00 00
  can0  000   [8]  0D 08 00 00 70 D7 FA 41
  can0  000   [8]  22 06 00 00 00 C0 08 42
  can0  000   [8]  22 07 00 00 00 40 03 42
  can0  000   [8]  22 11 00 00 2A 9E 5A 42
  can0  000   [8]  22 12 00 00 63 08 C3 41
  can0  000   [8]  22 13 00 00 ED BE 59 42
  can0  000   [8]  22 14 00 00 80 89 C3 41
  can0  000   [8]  22 15 00 00 63 08 C3 41
  can0  000   [8]  22 16 00 00 A3 70 1D 3E
  can0  000   [8]  22 17 00 00 23 E1 5A 42
  can0  000   [8]  22 18 00 00 72 68 11 3E
  can0  000   [8]  22 21 00 00 72 68 11 3E
  can0  000   [8]  22 2A 00 00 01 18 00 00
  can0  000   [8]  22 2B 00 00 01 18 00 00
  can0  00D   [8]  00 0A 00 00 00 00 00 00
  can0  000   [8]  0D 0A 00 00 40 82 FC 41
  can0  00D   [8]  00 0C 00 00 00 00 00 00
  can0  000   [8]  0D 0C 00 00 C8 26 22 42
  can0  00D   [8]  00 11 00 00 00 00 00 00
  can0  000   [8]  0D 11 00 00 00 00 00 00
  can0  00D   [8]  00 12 00 00 00 00 00 00
  can0  000   [8]  0D 12 00 00 00 00 00 00
  can0  00D   [8]  00 15 00 00 00 00 00 00
  can0  000   [8]  0D 15 00 00 00 00 00 00
  can0  00D   [8]  00 16 00 00 00 00 00 00
  can0  000   [8]  0D 16 00 00 00 00 00 00
  can0  00D   [8]  00 1B 00 00 00 00 00 00
  can0  000   [8]  0D 1B 00 00 00 00 80 3F
  can0  00D   [8]  00 1C 00 00 00 00 00 00
  can0  000   [8]  0D 1C 00 00 00 00 80 3F
  can0  00D   [8]  00 07 00 00 00 00 00 00
  can0  000   [8]  0D 07 00 00 70 FF 04 42
  can0  00D   [8]  00 09 00 00 00 00 00 00
  can0  000   [8]  0D 09 00 00 E8 07 02 42
  can0  00D   [8]  00 0B 00 00 00 00 00 00
  can0  000   [8]  0D 0B 00 00 E8 48 09 42
  can0  00D   [8]  00 0D 00 00 00 00 00 00
  can0  000   [8]  0D 0D 00 00 94 0F 1D 42
  can0  00D   [8]  00 13 00 00 00 00 00 00
  can0  000   [8]  0D 13 00 00 00 00 00 00
  can0  00D   [8]  00 14 00 00 00 00 00 00
  can0  000   [8]  0D 14 00 00 00 00 00 00
  can0  00D   [8]  00 17 00 00 00 00 00 00
  can0  000   [8]  0D 17 00 00 00 00 00 00
  can0  00D   [8]  00 18 00 00 00 00 00 00
  can0  000   [8]  0D 18 00 00 00 00 00 00
  can0  00D   [8]  00 1D 00 00 00 00 00 00
  can0  000   [8]  0D 1D 00 00 00 00 80 3F
  can0  00D   [8]  00 1E 00 00 00 00 00 00
  can0  000   [8]  0D 1E 00 00 00 00 80 3F
  can0  00E   [8]  00 06 00 00 00 00 00 00
  can0  000   [8]  0E 06 00 00 B0 AC FB 41
  can0  00E   [8]  00 08 00 00 00 00 00 00
  can0  000   [8]  0E 08 00 00 70 04 FF 41
  can0  00E   [8]  00 0A 00 00 00 00 00 00
  can0  000   [8]  0E 0A 00 00 38 E0 02 42
  can0  00E   [8]  00 0C 00 00 00 00 00 00
  can0  000   [8]  0E 0C 00 00 88 5A F8 41
  can0  00E   [8]  00 11 00 00 00 00 00 00
  can0  000   [8]  0E 11 00 00 00 00 00 00
  can0  00E   [8]  00 12 00 00 00 00 00 00
  can0  000   [8]  0E 12 00 00 00 00 00 00
  can0  00E   [8]  00 15 00 00 00 00 00 00
  can0  000   [8]  0E 15 00 00 00 00 00 00
  can0  00E   [8]  00 16 00 00 00 00 00 00
  can0  000   [8]  0E 16 00 00 00 00 00 00
  can0  000   [8]  22 06 00 00 00 C0 08 42
  can0  000   [8]  22 07 00 00 00 40 04 42
  can0  000   [8]  22 11 00 00 D7 87 5A 42
  can0  000   [8]  22 12 00 00 7A FB C2 41
  can0  000   [8]  22 13 00 00 9A A8 59 42
  can0  000   [8]  22 14 00 00 3D B0 C3 41
  can0  000   [8]  22 15 00 00 7A FB C2 41
  can0  000   [8]  22 16 00 00 A3 70 1D 3E
  can0  000   [8]  22 17 00 00 7D B4 5A 42
  can0  000   [8]  22 18 00 00 7C D0 13 3E
  can0  000   [8]  22 21 00 00 7C D0 13 3E
  can0  000   [8]  22 2A 00 00 01 18 00 00
  can0  000   [8]  22 2B 00 00 01 18 00 00
  can0  00E   [8]  00 1B 00 00 00 00 00 00
  can0  000   [8]  0E 1B 00 00 00 00 80 3F
  can0  00E   [8]  00 1C 00 00 00 00 00 00
  can0  000   [8]  0E 1C 00 00 00 00 80 3F
  can0  00E   [8]  00 07 00 00 00 00 00 00
  can0  000   [8]  0E 07 00 00 70 02 FA 41
  can0  00E   [8]  00 09 00 00 00 00 00 00
  can0  000   [8]  0E 09 00 00 F0 DC F5 41
  can0  00E   [8]  00 0B 00 00 00 00 00 00
  can0  000   [8]  0E 0B 00 00 30 D2 EC 41
  can0  00E   [8]  00 0D 00 00 00 00 00 00
  can0  000   [8]  0E 0D 00 00 0C 44 2C 42
  can0  00E   [8]  00 13 00 00 00 00 00 00
  can0  000   [8]  0E 13 00 00 00 00 00 00
  can0  00E   [8]  00 14 00 00 00 00 00 00
  can0  000   [8]  0E 14 00 00 00 00 00 00
  can0  00E   [8]  00 17 00 00 00 00 00 00
  can0  000   [8]  0E 17 00 00 00 00 00 00
  can0  00E   [8]  00 18 00 00 00 00 00 00
  can0  000   [8]  0E 18 00 00 00 00 00 00
  can0  00E   [8]  00 1D 00 00 00 00 00 00
  can0  000   [8]  0E 1D 00 00 00 00 80 3F
  can0  00E   [8]  00 1E 00 00 00 00 00 00
  can0  000   [8]  0E 1E 00 00 00 00 80 3F
  can0  00F   [8]  00 06 00 00 00 00 00 00
  can0  000   [8]  0F 06 00 00 F8 73 02 42
  can0  00F   [8]  00 08 00 00 00 00 00 00
  can0  000   [8]  0F 08 00 00 18 47 06 42
  can0  00F   [8]  00 0A 00 00 00 00 00 00
  can0  000   [8]  0F 0A 00 00 68 52 0C 42
  can0  00F   [8]  00 0C 00 00 00 00 00 00
  can0  000   [8]  0F 0C 00 00 3C CD 25 42
  can0  00F   [8]  00 11 00 00 00 00 00 00
  can0  000   [8]  0F 11 00 00 00 00 00 00
  can0  00F   [8]  00 12 00 00 00 00 00 00
  can0  000   [8]  0F 12 00 00 00 00 00 00
  can0  00F   [8]  00 15 00 00 00 00 00 00
  can0  000   [8]  0F 15 00 00 00 00 00 00
  can0  00F   [8]  00 16 00 00 00 00 00 00
  can0  000   [8]  0F 16 00 00 00 00 00 00
  can0  00F   [8]  00 1B 00 00 00 00 00 00
  can0  000   [8]  0F 1B 00 00 00 00 80 3F
  can0  00F   [8]  00 1C 00 00 00 00 00 00
  can0  000   [8]  0F 1C 00 00 00 00 80 3F
  can0  00F   [8]  00 07 00 00 00 00 00 00
  can0  000   [8]  0F 07 00 00 10 B9 03 42
  can0  00F   [8]  00 09 00 00 00 00 00 00
  can0  000   [8]  0F 09 00 00 70 C4 00 42
  can0  00F   [8]  00 0B 00 00 00 00 00 00
  can0  000   [8]  0F 0B 00 00 50 F3 0E 42
  can0  00F   [8]  00 0D 00 00 00 00 00 00
  can0  000   [8]  22 06 00 00 00 00 08 42
  can0  000   [8]  22 07 00 00 00 00 05 42
  can0  000   [8]  22 11 00 00 84 71 5A 42
  can0  000   [8]  22 12 00 00 D5 C7 C2 41
  can0  000   [8]  22 13 00 00 93 EB 59 42
  can0  000   [8]  22 14 00 00 F8 D6 C3 41
  can0  000   [8]  22 15 00 00 D5 C7 C2 41
  can0  000   [8]  22 16 00 00 AD D8 1F 3E
  can0  000   [8]  22 17 00 00 C9 0D 5B 42
  can0  000   [8]  22 18 00 00 7C D0 13 3E
  can0  000   [8]  22 21 00 00 7C D0 13 3E
  can0  000   [8]  22 2A 00 00 01 18 00 00
  can0  000   [8]  22 2B 00 00 01 18 00 00
  can0  000   [8]  0F 0D 00 00 DC D7 1C 42
  can0  00F   [8]  00 13 00 00 00 00 00 00
  can0  000   [8]  0F 13 00 00 00 00 00 00
  can0  00F   [8]  00 14 00 00 00 00 00 00
  can0  000   [8]  0F 14 00 00 00 00 00 00
  can0  00F   [8]  00 17 00 00 00 00 00 00
  can0  000   [8]  0F 17 00 00 00 00 00 00
  can0  00F   [8]  00 18 00 00 00 00 00 00
  can0  000   [8]  0F 18 00 00 00 00 00 00
  can0  00F   [8]  00 1D 00 00 00 00 00 00
  can0  000   [8]  0F 1D 00 00 00 00 80 3F
  can0  00F   [8]  00 1E 00 00 00 00 00 00
  can0  000   [8]  0F 1E 00 00 00 00 80 3F
  can0  010   [8]  00 06 00 00 00 00 00 00
  can0  000   [8]  10 06 00 00 10 58 FD 41
  can0  010   [8]  00 08 00 00 00 00 00 00
  can0  000   [8]  10 08 00 00 F0 DC F5 41
  can0  010   [8]  00 0A 00 00 00 00 00 00
  can0  000   [8]  10 0A 00 00 C0 46 EF 41
  can0  010   [8]  00 0C 00 00 00 00 00 00
  can0  000   [8]  10 0C 00 00 C0 6E 00 42
  can0  010   [8]  00 11 00 00 00 00 00 00
  can0  000   [8]  10 11 00 00 00 00 00 00
  can0  010   [8]  00 12 00 00 00 00 00 00
  can0  000   [8]  10 12 00 00 00 00 00 00
  can0  010   [8]  00 15 00 00 00 00 00 00
  can0  000   [8]  10 15 00 00 00 00 00 00
  can0  010   [8]  00 16 00 00 00 00 00 00
  can0  000   [8]  10 16 00 00 00 00 00 00
  can0  010   [8]  00 1B 00 00 00 00 00 00
  can0  000   [8]  10 1B 00 00 00 00 80 3F
  can0  010   [8]  00 1C 00 00 00 00 00 00
  can0  000   [8]  10 1C 00 00 00 00 80 3F
  can0  010   [8]  00 07 00 00 00 00 00 00
  can0  000   [8]  10 07 00 00 30 4F E6 41
  can0  010   [8]  00 09 00 00 00 00 00 00
  can0  000   [8]  10 09 00 00 B0 EE E7 41
  can0  010   [8]  00 0B 00 00 00 00 00 00
  can0  000   [8]  10 0B 00 00 00 75 EE 41
  can0  010   [8]  00 0D 00 00 00 00 00 00
  can0  000   [8]  10 0D 00 00 88 B8 03 42
  can0  010   [8]  00 13 00 00 00 00 00 00
  can0  000   [8]  10 13 00 00 00 00 00 00
  can0  010   [8]  00 14 00 00 00 00 00 00
  can0  000   [8]  10 14 00 00 00 00 00 00
  can0  010   [8]  00 17 00 00 00 00 00 00
  can0  000   [8]  10 17 00 00 00 00 00 00
  can0  010   [8]  00 18 00 00 00 00 00 00
  can0  000   [8]  10 18 00 00 00 00 00 00
  can0  010   [8]  00 1D 00 00 00 00 00 00
  can0  000   [8]  10 1D 00 00 00 00 80 3F
  can0  000   [8]  22 06 00 00 00 C0 08 42
  can0  000   [8]  22 07 00 00 00 C0 03 42
  can0  000   [8]  22 11 00 00 7D B4 5A 42
  can0  000   [8]  22 12 00 00 7A FB C2 41
  can0  000   [8]  22 13 00 00 47 92 59 42
  can0  010   [8]  00 1E 00 00 00 00 00 00
  can0  000   [8]  10 1E 00 00 00 00 80 3F
  can0  000   [8]  22 14 00 00 F8 D6 C3 41
  can0  000   [8]  22 15 00 00 7A FB C2 41
  can0  000   [8]  22 16 00 00 AD D8 1F 3E
  can0  000   [8]  22 17 00 00 C9 0D 5B 42
  can0  000   [8]  22 18 00 00 72 68 11 3E
  can0  000   [8]  22 21 00 00 72 68 11 3E
  can0  000   [8]  22 2A 00 00 01 18 00 00
  can0  000   [8]  22 2B 00 00 01 18 00 00
  can0  011   [8]  00 06 00 00 00 00 00 00
  can0  000   [8]  11 06 00 00 F0 9B 01 42
  can0  011   [8]  00 08 00 00 00 00 00 00
  can0  000   [8]  11 08 00 00 B8 25 04 42
  can0  011   [8]  00 0A 00 00 00 00 00 00
  can0  000   [8]  11 0A 00 00 10 58 FD 41
  can0  011   [8]  00 0C 00 00 00 00 00 00
  can0  000   [8]  11 0C 00 00 B0 7E 28 42
  can0  011   [8]  00 11 00 00 00 00 00 00
  can0  000   [8]  11 11 00 00 00 00 00 00
  can0  011   [8]  00 12 00 00 00 00 00 00
  can0  000   [8]  11 12 00 00 00 00 00 00
  can0  011   [8]  00 15 00 00 00 00 00 00
  can0  000   [8]  11 15 00 00 00 00 00 00
  can0  011   [8]  00 16 00 00 00 00 00 00
  can0  000   [8]  11 16 00 00 00 00 00 00
  can0  011   [8]  00 1B 00 00 00 00 00 00
  can0  000   [8]  11 1B 00 00 00 00 80 3F
  can0  011   [8]  00 1C 00 00 00 00 00 00
  can0  000   [8]  11 1C 00 00 00 00 80 3F
  can0  011   [8]  00 07 00 00 00 00 00 00
  can0  000   [8]  11 07 00 00 10 58 FD 41
  can0  011   [8]  00 09 00 00 00 00 00 00
  can0  000   [8]  11 09 00 00 80 92 04 42
  can0  011   [8]  00 0B 00 00 00 00 00 00
  can0  000   [8]  11 0B 00 00 70 C4 00 42
  can0  011   [8]  00 0D 00 00 00 00 00 00
  can0  000   [8]  11 0D 00 00 80 26 F7 41
  can0  011   [8]  00 13 00 00 00 00 00 00
  can0  000   [8]  11 13 00 00 00 00 00 00
  can0  011   [8]  00 14 00 00 00 00 00 00
  can0  000   [8]  11 14 00 00 00 00 00 00
  can0  011   [8]  00 17 00 00 00 00 00 00
  can0  000   [8]  11 17 00 00 00 00 00 00
  can0  011   [8]  00 18 00 00 00 00 00 00
  can0  000   [8]  11 18 00 00 00 00 00 00
  can0  011   [8]  00 1D 00 00 00 00 00 00
  can0  000   [8]  11 1D 00 00 00 00 80 3F
  can0  011   [8]  00 1E 00 00 00 00 00 00
  can0  000   [8]  11 1E 00 00 00 00 80 3F
  can0  000   [8]  22 06 00 00 00 00 09 42
  can0  000   [8]  22 07 00 00 00 C0 03 42
  can0  000   [8]  22 11 00 00 84 71 5A 42
  can0  000   [8]  22 12 00 00 C4 62 C3 41
  can0  000   [8]  22 13 00 00 ED BE 59 42
  can0  000   [8]  22 14 00 00 19 A1 C2 41
  can0  000   [8]  22 15 00 00 C4 62 C3 41
  can0  000   [8]  22 16 00 00 A3 70 1D 3E
  can0  000   [8]  22 17 00 00 C9 0D 5B 42
  can0  000   [8]  22 18 00 00 7C D0 13 3E
  can0  000   [8]  22 21 00 00 7C D0 13 3E
  can0  000   [8]  22 2A 00 00 01 18 00 00
  can0  000   [8]  22 2B 00 00 01 18 00 00
  can0  00A   [8]  00 00 00 00 00 00 00 00
  can0  00B   [8]  00 00 00 00 00 00 00 00
  can0  00C   [8]  00 00 00 00 00 00 00 00
  can0  00D   [8]  00 00 00 00 00 00 00 00
  can0  00E   [8]  00 00 00 00 00 00 00 00
  can0  00F   [8]  00 00 00 00 00 00 00 00
  can0  010   [8]  00 00 00 00 00 00 00 00
  can0  011   [8]  00 00 00 00 00 00 00 00
  can0  00A   [8]  00 02 00 00 00 00 80 3F
  can0  00B   [8]  00 02 00 00 00 00 80 3F
  can0  00C   [8]  00 02 00 00 00 00 80 3F
  can0  00D   [8]  00 02 00 00 00 00 80 3F
  can0  00E   [8]  00 02 00 00 00 00 80 3F
  can0  00F   [8]  00 02 00 00 00 00 80 3F
  can0  010   [8]  00 02 00 00 00 00 80 3F
  can0  011   [8]  00 02 00 00 00 00 80 3F
  can0  000   [8]  22 06 00 00 00 40 09 42
  can0  000   [8]  22 07 00 00 00 C0 00 42
  can0  000   [8]  22 11 00 00 5D C9 58 42
  can0  000   [8]  22 12 00 00 56 EC C1 41
  can0  000   [8]  22 13 00 00 72 00 58 42
  can0  000   [8]  22 14 00 00 9E 0A C4 41
  can0  000   [8]  22 15 00 00 56 EC C1 41
  can0  000   [8]  22 16 00 00 D7 12 82 3F
  can0  000   [8]  22 17 00 00 ED BE 59 42
  can0  000   [8]  22 18 00 00 A6 9B 04 3F
  can0  000   [8]  22 21 00 00 A6 9B 04 3F
  can0  000   [8]  22 2A 00 00 01 18 00 00
  can0  000   [8]  22 2B 00 00 01 18 00 00
  can0  000   [8]  22 06 00 00 00 00 0A 42
  can0  000   [8]  22 07 00 00 00 40 05 42
  can0  000   [8]  22 11 00 00 4E 4F 59 42
  can0  000   [8]  22 12 00 00 73 6D C2 41
  can0  000   [8]  22 13 00 00 0A B3 58 42
  can0  000   [8]  22 14 00 00 80 89 C3 41
  can0  000   [8]  22 15 00 00 73 6D C2 41
  can0  000   [8]  22 16 00 00 3B 70 9A 3F
  can0  000   [8]  22 17 00 00 4E 4F 59 42
  can0  000   [8]  22 18 00 00 3D 0A 9B 3F
  can0  000   [8]  22 21 00 00 3D 0A 9B 3F
  can0  000   [8]  22 2A 00 00 01 18 00 00
  can0  000   [8]  22 2B 00 00 01 18 00 00
  can0  000   [8]  22 06 00 00 00 00 08 42
  can0  000   [8]  22 07 00 00 00 40 04 42
  can0  000   [8]  22 11 00 00 40 D5 59 42
  can0  000   [8]  22 12 00 00 2F 94 C2 41
  can0  000   [8]  22 13 00 00 B0 DF 58 42
  can0  000   [8]  22 14 00 00 AE 6F C3 41
  can0  000   [8]  22 15 00 00 2F 94 C2 41
  can0  000   [8]  22 16 00 00 4D 84 2D 3F
  can0  000   [8]  22 17 00 00 93 EB 59 42
  can0  000   [8]  22 18 00 00 7A 83 77 3F
  can0  000   [8]  22 21 00 00 7A 83 77 3F
  can0  000   [8]  22 2A 00 00 01 18 00 00
  can0  000   [8]  22 2B 00 00 01 18 00 00
  can0  00A   [8]  00 03 00 00 00 00 80 3F
  can0  00B   [8]  00 03 00 00 00 00 80 3F
  can0  00C   [8]  00 03 00 00 00 00 80 3F
  can0  00D   [8]  00 03 00 00 00 00 80 3F
  can0  00E   [8]  00 03 00 00 00 00 80 3F
  can0  00F   [8]  00 03 00 00 00 00 80 3F
  can0  010   [8]  00 03 00 00 00 00 80 3F
  can0  011   [8]  00 03 00 00 00 00 80 3F
  can0  000   [8]  22 06 00 00 00 80 09 42
  can0  000   [8]  22 07 00 00 00 C0 02 42
  can0  000   [8]  22 11 00 00 B0 DF 58 42
  can0  000   [8]  22 12 00 00 9B C5 C1 41
  can0  000   [8]  22 13 00 00 0A B3 58 42
  can0  000   [8]  22 14 00 00 1F 2F C3 41
  can0  000   [8]  22 15 00 00 9B C5 C1 41
  can0  000   [8]  22 16 00 00 19 E2 20 3F
  can0  00A   [8]  00 04 00 00 00 00 0C 42
  can0  000   [8]  22 17 00 00 9A A8 59 42
  can0  000   [8]  22 18 00 00 B3 EA E3 3E
  can0  000   [8]  22 21 00 00 B3 EA E3 3E
  can0  000   [8]  22 2A 00 00 01 18 00 00
  can0  000   [8]  22 2B 00 00 01 18 00 00
  can0  00B   [8]  00 04 00 00 00 00 0C 42
  can0  00C   [8]  00 04 00 00 00 00 0C 42
  can0  00D   [8]  00 04 00 00 00 00 0C 42
  can0  00E   [8]  00 04 00 00 00 00 0C 42
  can0  00F   [8]  00 04 00 00 00 00 0C 42
  can0  010   [8]  00 04 00 00 00 00 0C 42
  can0  011   [8]  00 04 00 00 00 00 0C 42
  can0  000   [8]  22 06 00 00 00 C0 08 42
  can0  000   [8]  22 07 00 00 00 00 07 42
  can0  000   [8]  22 11 00 00 64 86 58 42
  can0  000   [8]  22 12 00 00 C1 1D C1 41
  can0  000   [8]  22 13 00 00 6B 43 58 42
  can0  000   [8]  22 14 00 00 AE 6F C3 41
  can0  000   [8]  22 15 00 00 C1 1D C1 41
  can0  000   [8]  22 16 00 00 AE 47 F5 3F
  can0  000   [8]  22 17 00 00 B7 9C 58 42
  can0  000   [8]  22 18 00 00 71 AC A7 3F
  can0  000   [8]  22 21 00 00 71 AC A7 3F
  can0  000   [8]  22 2A 00 00 01 18 00 00
  can0  000   [8]  22 2B 00 00 01 18 00 00
  can0  000   [8]  22 06 00 00 00 80 09 42
  can0  000   [8]  22 07 00 00 00 C0 04 42
  can0  000   [8]  22 11 00 00 E6 01 5A 42
  can0  000   [8]  22 12 00 00 E5 2C C2 41
  can0  000   [8]  22 13 00 00 F4 7B 59 42
  can0  000   [8]  22 14 00 00 80 89 C3 41
  can0  000   [8]  22 15 00 00 E5 2C C2 41
  can0  000   [8]  22 16 00 00 C6 6D 0C 3F
  can0  000   [8]  22 17 00 00 D7 87 5A 42
  can0  000   [8]  22 18 00 00 31 77 65 3F
  can0  000   [8]  22 21 00 00 31 77 65 3F
  can0  000   [8]  22 2A 00 00 01 18 00 00
  can0  000   [8]  22 2B 00 00 01 18 00 00
  can0  000   [8]  22 06 00 00 00 40 0B 42
  can0  000   [8]  22 07 00 00 00 00 04 42
  can0  000   [8]  22 11 00 00 40 D5 59 42
  can0  000   [8]  22 12 00 00 EC BA C2 41
  can0  000   [8]  22 13 00 00 03 F6 58 42
  can0  000   [8]  22 14 00 00 DB 55 C3 41
  can0  000   [8]  22 15 00 00 EC BA C2 41
  can0  000   [8]  22 16 00 00 E6 AE 85 3F
  can0  000   [8]  22 17 00 00 8C 2E 5A 42
  can0  000   [8]  22 18 00 00 4F 1E 2E 3F
  can0  000   [8]  22 21 00 00 4F 1E 2E 3F
  can0  000   [8]  22 2A 00 00 01 18 00 00
  can0  000   [8]  22 2B 00 00 01 18 00 00
  can0  00A   [8]  00 05 00 00 00 00 0C 42
  can0  00B   [8]  00 05 00 00 00 00 0C 42
  can0  00C   [8]  00 05 00 00 00 00 0C 42
  can0  00D   [8]  00 05 00 00 00 00 0C 42
  can0  00E   [8]  00 05 00 00 00 00 0C 42
  can0  00F   [8]  00 05 00 00 00 00 0C 42
  can0  010   [8]  00 05 00 00 00 00 0C 42
  can0  011   [8]  00 05 00 00 00 00 0C 42
  can0  00A   [8]  00 06 00 00 00 00 00 00
  can0  000   [8]  0A 06 00 00 50 12 0E 42
  can0  000   [8]  22 06 00 00 00 80 0A 42
  can0  000   [8]  22 07 00 00 00 80 05 42
  can0  000   [8]  22 11 00 00 8C 2E 5A 42
  can0  000   [8]  22 12 00 00 E5 2C C2 41
  can0  000   [8]  22 13 00 00 03 F6 58 42
  can0  000   [8]  22 14 00 00 46 87 C2 41
  can0  000   [8]  22 15 00 00 E5 2C C2 41
  can0  000   [8]  22 16 00 00 17 48 20 3F
  can0  000   [8]  22 17 00 00 2A 9E 5A 42
  can0  000   [8]  22 18 00 00 79 E9 96 3E
  can0  000   [8]  22 21 00 00 79 E9 96 3E
  can0  000   [8]  22 2A 00 00 01 18 00 00
  can0  000   [8]  22 2B 00 00 01 18 00 00
  can0  00A   [8]  00 08 00 00 00 00 00 00
  can0  000   [8]  0A 08 00 00 08 64 0F 42
  can0  00A   [8]  00 0A 00 00 00 00 00 00
  can0  000   [8]  0A 0A 00 00 10 59 F8 41
  can0  00A   [8]  00 0C 00 00 00 00 00 00
  can0  000   [8]  0A 0C 00 00 40 EF CF 41
  can0  00A   [8]  00 11 00 00 00 00 00 00
  can0  000   [8]  0A 11 00 00 00 00 00 00
  can0  00A   [8]  00 12 00 00 00 00 00 00
  can0  000   [8]  0A 12 00 00 00 00 00 00
  can0  00A   [8]  00 15 00 00 00 00 00 00
  can0  000   [8]  0A 15 00 00 00 00 FE 42
  can0  00A   [8]  00 16 00 00 00 00 00 00
  can0  000   [8]  0A 16 00 00 00 00 C0 40
  can0  00A   [8]  00 1B 00 00 00 00 00 00
  can0  000   [8]  0A 1B 00 00 00 00 00 00
  can0  00A   [8]  00 1C 00 00 00 00 00 00
  can0  000   [8]  0A 1C 00 00 00 00 80 3F
  can0  000   [8]  22 06 00 00 00 C0 0B 42
  can0  000   [8]  22 07 00 00 00 00 06 42
  can0  000   [8]  22 11 00 00 E6 01 5A 42
  can0  000   [8]  22 12 00 00 90 EE C2 41
  can0  000   [8]  22 13 00 00 9A A8 59 42
  can0  00A   [8]  00 07 00 00 00 00 00 00
  can0  000   [8]  22 14 00 00 1C E6 C4 41
  can0  000   [8]  0A 07 00 00 50 12 0E 42
  can0  000   [8]  22 15 00 00 90 EE C2 41
  can0  000   [8]  22 16 00 00 E0 2D B0 3E
  can0  000   [8]  22 17 00 00 7D B4 5A 42
  can0  000   [8]  22 18 00 00 E0 BE EE 3E
  can0  000   [8]  22 21 00 00 E0 BE EE 3E
  can0  000   [8]  22 2A 00 00 01 18 00 00
  can0  000   [8]  22 2B 00 00 01 18 00 00
  can0  00A   [8]  00 09 00 00 00 00 00 00
  can0  000   [8]  0A 09 00 00 E0 E2 0B 42
  can0  00A   [8]  00 0B 00 00 00 00 00 00
  can0  000   [8]  0A 0B 00 00 10 01 EC 41
  can0  00A   [8]  00 0D 00 00 00 00 00 00
  can0  000   [8]  0A 0D 00 00 78 E7 D8 41
  can0  00A   [8]  00 13 00 00 00 00 00 00
  can0  000   [8]  0A 13 00 00 00 00 00 00
  can0  00A   [8]  00 14 00 00 00 00 00 00
  can0  000   [8]  0A 14 00 00 00 00 00 00
  can0  00A   [8]  00 17 00 00 00 00 00 00
  can0  000   [8]  0A 17 00 00 00 00 18 43
  can0  00A   [8]  00 18 00 00 00 00 00 00
  can0  000   [8]  0A 18 00 00 00 00 80 3F
  can0  00A   [8]  00 1D 00 00 00 00 00 00
  can0  000   [8]  0A 1D 00 00 00 00 00 00
  can0  00A   [8]  00 1E 00 00 00 00 00 00
  can0  000   [8]  0A 1E 00 00 00 00 80 3F
  can0  00B   [8]  00 06 00 00 00 00 00 00
  can0  000   [8]  0B 06 00 00 E0 E2 0B 42
  can0  00B   [8]  00 08 00 00 00 00 00 00
  can0  000   [8]  0B 08 00 00 68 52 0C 42
  can0  00B   [8]  00 0A 00 00 00 00 00 00
  can0  000   [8]  0B 0A 00 00 30 6C 08 42
  can0  00B   [8]  00 0C 00 00 00 00 00 00
  can0  000   [8]  0B 0C 00 00 20 40 F0 41
  can0  00B   [8]  00 11 00 00 00 00 00 00
  can0  000   [8]  0B 11 00 00 00 00 00 00
  can0  00B   [8]  00 12 00 00 00 00 00 00
  can0  000   [8]  0B 12 00 00 00 00 00 00
  can0  00B   [8]  00 15 00 00 00 00 00 00
  can0  000   [8]  0B 15 00 00 00 00 82 42
  can0  00B   [8]  00 16 00 00 00 00 00 00
  can0  000   [8]  0B 16 00 00 00 00 00 00
  can0  00B   [8]  00 1B 00 00 00 00 00 00
  can0  000   [8]  0B 1B 00 00 00 00 00 00
  can0  00B   [8]  00 1C 00 00 00 00 00 00
  can0  000   [8]  0B 1C 00 00 00 00 00 00
  can0  00B   [8]  00 07 00 00 00 00 00 00
  can0  000   [8]  0B 07 00 00 08 64 0F 42
  can0  00B   [8]  00 09 00 00 00 00 00 00
  can0  000   [8]  0B 09 00 00 50 B7 10 42
  can0  00B   [8]  00 0B 00 00 00 00 00 00
  can0  000   [8]  0B 0B 00 00 C0 B0 F6 41
  can0  00B   [8]  00 0D 00 00 00 00 00 00
  can0  000   [8]  0B 0D 00 00 6C 23 23 42
  can0  00B   [8]  00 13 00 00 00 00 00 00
  can0  000   [8]  0B 13 00 00 00 00 00 00
  can0  00B   [8]  00 14 00 00 00 00 00 00
  can0  000   [8]  22 06 00 00 00 80 0B 42
  can0  000   [8]  22 07 00 00 00 80 06 42
  can0  000   [8]  22 11 00 00 32 5B 5A 42
  can0  000   [8]  22 12 00 00 D5 C7 C2 41
  can0  000   [8]  22 13 00 00 47 92 59 42
  can0  000   [8]  22 14 00 00 3D B0 C3 41
  can0  000   [8]  22 15 00 00 D5 C7 C2 41
  can0  000   [8]  22 16 00 00 6F 81 94 3E
  can0  000   [8]  22 17 00 00 7D B4 5A 42
  can0  000   [8]  22 18 00 00 B4 59 A5 3E
  can0  000   [8]  22 21 00 00 B4 59 A5 3E
  can0  000   [8]  22 2A 00 00 01 18 00 00
  can0  000   [8]  22 2B 00 00 01 18 00 00
  can0  000   [8]  0B 14 00 00 00 00 00 00
  can0  00B   [8]  00 17 00 00 00 00 00 00
  can0  000   [8]  0B 17 00 00 00 00 D8 42
  can0  00B   [8]  00 18 00 00 00 00 00 00
  can0  000   [8]  0B 18 00 00 00 00 00 00
  can0  00B   [8]  00 1D 00 00 00 00 00 00
  can0  000   [8]  0B 1D 00 00 00 00 00 00
  can0  00B   [8]  00 1E 00 00 00 00 00 00
  can0  000   [8]  0B 1E 00 00 00 00 80 3F
  can0  00C   [8]  00 06 00 00 00 00 00 00
  can0  000   [8]  0C 06 00 00 50 F3 0E 42
  can0  00C   [8]  00 08 00 00 00 00 00 00
  can0  000   [8]  0C 08 00 00 78 73 0B 42
  can0  00C   [8]  00 0A 00 00 00 00 00 00
  can0  000   [8]  0C 0A 00 00 E0 62 F3 41
  can0  00C   [8]  00 0C 00 00 00 00 00 00
  can0  000   [8]  0C 0C 00 00 7C E2 25 42
  can0  00C   [8]  00 11 00 00 00 00 00 00
  can0  000   [8]  0C 11 00 00 00 00 00 00
  can0  00C   [8]  00 12 00 00 00 00 00 00
  can0  000   [8]  0C 12 00 00 00 00 00 00
  can0  00C   [8]  00 15 00 00 00 00 00 00
  can0  000   [8]  0C 15 00 00 00 80 D5 43
  can0  00C   [8]  00 16 00 00 00 00 00 00
  can0  000   [8]  0C 16 00 00 00 00 4C 42
  can0  00C   [8]  00 1B 00 00 00 00 00 00
  can0  000   [8]  0C 1B 00 00 00 00 00 00
  can0  00C   [8]  00 1C 00 00 00 00 00 00
  can0  000   [8]  0C 1C 00 00 00 00 80 3F
  can0  00C   [8]  00 07 00 00 00 00 00 00
  can0  000   [8]  0C 07 00 00 F0 D4 0F 42
  can0  00C   [8]  00 09 00 00 00 00 00 00
  can0  000   [8]  0C 09 00 00 80 B7 09 42
  can0  00C   [8]  00 0B 00 00 00 00 00 00
  can0  000   [8]  0C 0B 00 00 D0 84 F7 41
  can0  00C   [8]  00 0D 00 00 00 00 00 00
  can0  000   [8]  0C 0D 00 00 D0 C2 E3 41
  can0  00C   [8]  00 13 00 00 00 00 00 00
  can0  000   [8]  0C 13 00 00 00 00 00 00
  can0  00C   [8]  00 14 00 00 00 00 00 00
  can0  000   [8]  0C 14 00 00 00 00 00 00
  can0  00C   [8]  00 17 00 00 00 00 00 00
  can0  000   [8]  0C 17 00 00 00 00 31 43
  can0  00C   [8]  00 18 00 00 00 00 00 00
  can0  000   [8]  0C 18 00 00 00 00 00 40
  can0  00C   [8]  00 1D 00 00 00 00 00 00
  can0  000   [8]  0C 1D 00 00 00 00 00 00
  can0  00C   [8]  00 1E 00 00 00 00 00 00
  can0  000   [8]  0C 1E 00 00 00 00 80 3F
  can0  00D   [8]  00 06 00 00 00 00 00 00
  can0  000   [8]  0D 06 00 00 38 0C 12 42
  can0  00D   [8]  00 08 00 00 00 00 00 00
  can0  000   [8]  0D 08 00 00 28 95 0A 42
  can0  000   [8]  22 06 00 00 00 00 0B 42
  can0  000   [8]  22 07 00 00 00 C0 05 42
  can0  000   [8]  22 11 00 00 32 5B 5A 42
  can0  000   [8]  22 12 00 00 02 AE C2 41
  can0  000   [8]  22 13 00 00 ED BE 59 42
  can0  000   [8]  22 14 00 00 F1 48 C3 41
  can0  000   [8]  22 15 00 00 02 AE C2 41
  can0  000   [8]  22 16 00 00 C2 86 E7 3E
  can0  00D   [8]  00 0A 00 00 00 00 00 00
  can0  000   [8]  0D 0A 00 00 70 04 FF 41
  can0  000   [8]  22 17 00 00 C9 0D 5B 42
  can0  000   [8]  22 18 00 00 06 12 74 3E
  can0  000   [8]  22 21 00 00 06 12 74 3E
  can0  000   [8]  22 2A 00 00 01 18 00 00
  can0  000   [8]  22 2B 00 00 01 18 00 00
  can0  00D   [8]  00 0C 00 00 00 00 00 00
  can0  000   [8]  0D 0C 00 00 18 80 22 42
  can0  00D   [8]  00 11 00 00 00 00 00 00
  can0  000   [8]  0D 11 00 00 00 00 00 00
  can0  00D   [8]  00 12 00 00 00 00 00 00
  can0  000   [8]  0D 12 00 00 00 00 00 00
  can0  00D   [8]  00 15 00 00 00 00 00 00
  can0  000   [8]  0D 15 00 00 00 00 B0 42
  can0  00D   [8]  00 16 00 00 00 00 00 00
  can0  000   [8]  0D 16 00 00 00 00 00 00
  can0  00D   [8]  00 1B 00 00 00 00 00 00
  can0  000   [8]  0D 1B 00 00 00 00 00 00
  can0  00D   [8]  00 1C 00 00 00 00 00 00
  can0  000   [8]  0D 1C 00 00 00 00 80 3F
  can0  00D   [8]  00 07 00 00 00 00 00 00
  can0  000   [8]  0D 07 00 00 08 64 0F 42
  can0  00D   [8]  00 09 00 00 00 00 00 00
  can0  000   [8]  0D 09 00 00 28 C2 0C 42
  can0  00D   [8]  00 0B 00 00 00 00 00 00
  can0  000   [8]  0D 0B 00 00 48 26 0A 42
  can0  00D   [8]  00 0D 00 00 00 00 00 00
  can0  000   [8]  0D 0D 00 00 7C 64 1E 42
  can0  00D   [8]  00 13 00 00 00 00 00 00
  can0  000   [8]  0D 13 00 00 00 00 00 00
  can0  00D   [8]  00 14 00 00 00 00 00 00
  can0  000   [8]  0D 14 00 00 00 00 00 00
  can0  00D   [8]  00 17 00 00 00 00 00 00
  can0  000   [8]  0D 17 00 00 00 00 07 44
  can0  00D   [8]  00 18 00 00 00 00 00 00
  can0  000   [8]  0D 18 00 00 00 00 00 43
  can0  00D   [8]  00 1D 00 00 00 00 00 00
  can0  000   [8]  0D 1D 00 00 00 00 00 00
  can0  00D   [8]  00 1E 00 00 00 00 00 00
  can0  000   [8]  0D 1E 00 00 00 00 80 3F
  can0  00E   [8]  00 06 00 00 00 00 00 00
  can0  000   [8]  0E 06 00 00 C8 62 13 42
  can0  00E   [8]  00 08 00 00 00 00 00 00
  can0  000   [8]  0E 08 00 00 F8 14 16 42
  can0  00E   [8]  00 0A 00 00 00 00 00 00
  can0  000   [8]  0E 0A 00 00 70 FF 04 42
  can0  00E   [8]  00 0C 00 00 00 00 00 00
  can0  000   [8]  0E 0C 00 00 50 29 F7 41
  can0  00E   [8]  00 11 00 00 00 00 00 00
  can0  000   [8]  0E 11 00 00 00 00 00 00
  can0  00E   [8]  00 12 00 00 00 00 00 00
  can0  000   [8]  0E 12 00 00 00 00 00 00
  can0  00E   [8]  00 15 00 00 00 00 00 00
  can0  000   [8]  0E 15 00 00 00 00 28 43
  can0  00E   [8]  00 16 00 00 00 00 00 00
  can0  000   [8]  0E 16 00 00 00 00 00 00
  can0  000   [8]  22 06 00 00 00 00 0B 42
  can0  000   [8]  22 07 00 00 00 C0 02 42
  can0  000   [8]  22 11 00 00 8C 2E 5A 42
  can0  000   [8]  22 12 00 00 F1 48 C3 41
  can0  000   [8]  22 13 00 00 ED BE 59 42
  can0  000   [8]  22 14 00 00 6A 96 C3 41
  can0  000   [8]  22 15 00 00 F1 48 C3 41
  can0  000   [8]  22 16 00 00 A0 89 A0 3E
  can0  000   [8]  22 17 00 00 2A 9E 5A 42
  can0  000   [8]  22 18 00 00 EA 95 B2 3E
  can0  000   [8]  22 21 00 00 EA 95 B2 3E
  can0  000   [8]  22 2A 00 00 01 18 00 00
  can0  000   [8]  22 2B 00 00 01 18 00 00
  can0  00E   [8]  00 1B 00 00 00 00 00 00
  can0  000   [8]  0E 1B 00 00 00 00 00 00
  can0  00E   [8]  00 1C 00 00 00 00 00 00
  can0  000   [8]  0E 1C 00 00 00 00 80 3F
  can0  00E   [8]  00 07 00 00 00 00 00 00
  can0  000   [8]  0E 07 00 00 C8 62 13 42
  can0  00E   [8]  00 09 00 00 00 00 00 00
  can0  000   [8]  0E 09 00 00 68 9A 11 42
  can0  00E   [8]  00 0B 00 00 00 00 00 00
  can0  000   [8]  0E 0B 00 00 C0 46 EF 41
  can0  00E   [8]  00 0D 00 00 00 00 00 00
  can0  000   [8]  0E 0D 00 00 6C A1 2E 42
  can0  00E   [8]  00 13 00 00 00 00 00 00
  can0  000   [8]  0E 13 00 00 00 00 00 00
  can0  00E   [8]  00 14 00 00 00 00 00 00
  can0  000   [8]  0E 14 00 00 00 00 00 00
  can0  00E   [8]  00 17 00 00 00 00 00 00
  can0  000   [8]  0E 17 00 00 00 00 1D 43
  can0  00E   [8]  00 18 00 00 00 00 00 00
  can0  000   [8]  0E 18 00 00 00 00 00 00
  can0  00E   [8]  00 1D 00 00 00 00 00 00
  can0  000   [8]  0E 1D 00 00 00 00 00 00
  can0  00E   [8]  00 1E 00 00 00 00 00 00
  can0  000   [8]  0E 1E 00 00 00 00 80 3F
  can0  00F   [8]  00 06 00 00 00 00 00 00
  can0  000   [8]  0F 06 00 00 C8 62 13 42
  can0  00F   [8]  00 08 00 00 00 00 00 00
  can0  000   [8]  0F 08 00 00 00 E5 17 42
  can0  00F   [8]  00 0A 00 00 00 00 00 00
  can0  000   [8]  0F 0A 00 00 50 12 0E 42
  can0  00F   [8]  00 0C 00 00 00 00 00 00
  can0  000   [8]  0F 0C 00 00 AC 61 26 42
  can0  00F   [8]  00 11 00 00 00 00 00 00
  can0  000   [8]  0F 11 00 00 00 00 00 00
  can0  00F   [8]  00 12 00 00 00 00 00 00
  can0  000   [8]  0F 12 00 00 00 00 00 00
  can0  00F   [8]  00 15 00 00 00 00 00 00
  can0  000   [8]  0F 15 00 00 00 00 C4 42
  can0  00F   [8]  00 16 00 00 00 00 00 00
  can0  000   [8]  0F 16 00 00 00 00 50 41
  can0  00F   [8]  00 1B 00 00 00 00 00 00
  can0  000   [8]  0F 1B 00 00 00 00 00 00
  can0  00F   [8]  00 1C 00 00 00 00 00 00
  can0  000   [8]  0F 1C 00 00 00 00 80 3F
  can0  00F   [8]  00 07 00 00 00 00 00 00
  can0  000   [8]  0F 07 00 00 68 F0 12 42
  can0  00F   [8]  00 09 00 00 00 00 00 00
  can0  000   [8]  0F 09 00 00 50 B7 10 42
  can0  00F   [8]  00 0B 00 00 00 00 00 00
  can0  000   [8]  0F 0B 00 00 10 46 10 42
  can0  00F   [8]  00 0D 00 00 00 00 00 00
  can0  000   [8]  22 06 00 00 00 00 0B 42
  can0  000   [8]  22 07 00 00 00 C0 04 42
  can0  000   [8]  22 11 00 00 32 5B 5A 42
  can0  000   [8]  22 12 00 00 EC BA C2 41
  can0  000   [8]  22 13 00 00 47 92 59 42
  can0  000   [8]  22 14 00 00 F8 D6 C3 41
  can0  000   [8]  22 15 00 00 EC BA C2 41
  can0  000   [8]  22 16 00 00 79 E9 96 3E
  can0  000   [8]  22 17 00 00 2A 9E 5A 42
  can0  000   [8]  22 18 00 00 18 E2 78 3E
  can0  000   [8]  22 21 00 00 18 E2 78 3E
  can0  000   [8]  22 2A 00 00 01 18 00 00
  can0  000   [8]  22 2B 00 00 01 18 00 00
  can0  000   [8]  0F 0D 00 00 24 E7 1C 42
  can0  00F   [8]  00 13 00 00 00 00 00 00
  can0  000   [8]  0F 13 00 00 00 00 00 00
  can0  00F   [8]  00 14 00 00 00 00 00 00
  can0  000   [8]  0F 14 00 00 00 00 00 00
  can0  00F   [8]  00 17 00 00 00 00 00 00
  can0  000   [8]  0F 17 00 00 00 00 E0 42
  can0  00F   [8]  00 18 00 00 00 00 00 00
  can0  000   [8]  0F 18 00 00 00 00 00 00
  can0  00F   [8]  00 1D 00 00 00 00 00 00
  can0  000   [8]  0F 1D 00 00 00 00 00 00
  can0  00F   [8]  00 1E 00 00 00 00 00 00
  can0  000   [8]  0F 1E 00 00 00 00 80 3F
  can0  010   [8]  00 06 00 00 00 00 00 00
  can0  000   [8]  10 06 00 00 08 64 0F 42
  can0  010   [8]  00 08 00 00 00 00 00 00
  can0  000   [8]  10 08 00 00 78 73 0B 42
  can0  010   [8]  00 0A 00 00 00 00 00 00
  can0  000   [8]  10 0A 00 00 00 90 F2 41
  can0  010   [8]  00 0C 00 00 00 00 00 00
  can0  000   [8]  10 0C 00 00 E8 95 00 42
  can0  010   [8]  00 11 00 00 00 00 00 00
  can0  000   [8]  10 11 00 00 00 00 00 00
  can0  010   [8]  00 12 00 00 00 00 00 00
  can0  000   [8]  10 12 00 00 00 00 00 00
  can0  010   [8]  00 15 00 00 00 00 00 00
  can0  000   [8]  10 15 00 00 00 00 0E 43
  can0  010   [8]  00 16 00 00 00 00 00 00
  can0  000   [8]  10 16 00 00 00 00 00 00
  can0  010   [8]  00 1B 00 00 00 00 00 00
  can0  000   [8]  10 1B 00 00 00 00 00 00
  can0  010   [8]  00 1C 00 00 00 00 00 00
  can0  000   [8]  10 1C 00 00 00 00 80 3F
  can0  010   [8]  00 07 00 00 00 00 00 00
  can0  000   [8]  10 07 00 00 28 95 0A 42
  can0  010   [8]  00 09 00 00 00 00 00 00
  can0  000   [8]  10 09 00 00 40 04 0B 42
  can0  010   [8]  00 0B 00 00 00 00 00 00
  can0  000   [8]  10 0B 00 00 60 BD F1 41
  can0  010   [8]  00 0D 00 00 00 00 00 00
  can0  000   [8]  10 0D 00 00 44 CF 02 42
  can0  010   [8]  00 13 00 00 00 00 00 00
  can0  000   [8]  10 13 00 00 00 00 00 00
  can0  010   [8]  00 14 00 00 00 00 00 00
  can0  000   [8]  10 14 00 00 00 00 00 00
  can0  010   [8]  00 17 00 00 00 00 00 00
  can0  000   [8]  10 17 00 00 00 00 28 43
  can0  010   [8]  00 18 00 00 00 00 00 00
  can0  000   [8]  10 18 00 00 00 00 30 41
  can0  010   [8]  00 1D 00 00 00 00 00 00
  can0  000   [8]  10 1D 00 00 00 00 00 00
  can0  010   [8]  00 1E 00 00 00 00 00 00
  can0  000   [8]  10 1E 00 00 00 00 80 3F
  can0  000   [8]  22 06 00 00 00 C0 0A 42
  can0  000   [8]  22 07 00 00 00 C0 03 42
  can0  000   [8]  22 11 00 00 32 5B 5A 42
  can0  000   [8]  22 12 00 00 A7 E1 C2 41
  can0  000   [8]  22 13 00 00 93 EB 59 42
  can0  000   [8]  22 14 00 00 E1 E3 C3 41
  can0  000   [8]  22 15 00 00 A7 E1 C2 41
  can0  000   [8]  22 16 00 00 74 B5 95 3E
  can0  000   [8]  22 17 00 00 76 F7 5A 42
  can0  000   [8]  22 18 00 00 06 12 74 3E
  can0  000   [8]  22 21 00 00 06 12 74 3E
  can0  000   [8]  22 2A 00 00 01 18 00 00
  can0  000   [8]  22 2B 00 00 01 18 00 00
  can0  011   [8]  00 06 00 00 00 00 00 00
  can0  000   [8]  11 06 00 00 38 7E 12 42
  can0  011   [8]  00 08 00 00 00 00 00 00
  can0  000   [8]  11 08 00 00 20 2E 15 42
  can0  011   [8]  00 0A 00 00 00 00 00 00
  can0  000   [8]  11 0A 00 00 70 C4 00 42
  can0  011   [8]  00 0C 00 00 00 00 00 00
  can0  000   [8]  11 0C 00 00 48 47 27 42
  can0  011   [8]  00 11 00 00 00 00 00 00
  can0  000   [8]  11 11 00 00 00 00 00 00
  can0  011   [8]  00 12 00 00 00 00 00 00
  can0  000   [8]  11 12 00 00 00 00 00 00
  can0  011   [8]  00 15 00 00 00 00 00 00
  can0  000   [8]  11 15 00 00 00 00 EE 42
  can0  011   [8]  00 16 00 00 00 00 00 00
  can0  000   [8]  11 16 00 00 00 00 00 41
  can0  011   [8]  00 1B 00 00 00 00 00 00
  can0  000   [8]  11 1B 00 00 00 00 00 00
  can0  011   [8]  00 1C 00 00 00 00 00 00
  can0  000   [8]  11 1C 00 00 00 00 80 3F
  can0  011   [8]  00 07 00 00 00 00 00 00
  can0  000   [8]  11 07 00 00 38 7E 12 42
  can0  011   [8]  00 09 00 00 00 00 00 00
  can0  000   [8]  11 09 00 00 38 CE 18 42
  can0  011   [8]  00 0B 00 00 00 00 00 00
  can0  000   [8]  11 0B 00 00 38 E0 02 42
  can0  011   [8]  00 0D 00 00 00 00 00 00
  can0  000   [8]  11 0D 00 00 C0 F4 F3 41
  can0  011   [8]  00 13 00 00 00 00 00 00
  can0  000   [8]  11 13 00 00 00 00 00 00
  can0  011   [8]  00 14 00 00 00 00 00 00
  can0  000   [8]  11 14 00 00 00 00 00 00
  can0  011   [8]  00 17 00 00 00 00 00 00
  can0  000   [8]  11 17 00 00 00 00 03 43
  can0  011   [8]  00 18 00 00 00 00 00 00
  can0  000   [8]  11 18 00 00 00 00 00 00
  can0  011   [8]  00 1D 00 00 00 00 00 00
  can0  000   [8]  11 1D 00 00 00 00 00 00
  can0  011   [8]  00 1E 00 00 00 00 00 00
  can0  000   [8]  11 1E 00 00 00 00 80 3F
  can0  000   [8]  22 06 00 00 00 80 0B 42
  can0  000   [8]  22 07 00 00 00 80 05 42
  can0  000   [8]  22 11 00 00 D7 87 5A 42
  can0  000   [8]  22 12 00 00 BD D4 C2 41
  can0  000   [8]  22 13 00 00 47 92 59 42
  can0  000   [8]  22 14 00 00 6A 96 C3 41
  can0  000   [8]  22 15 00 00 BD D4 C2 41
  can0  000   [8]  22 16 00 00 4C 15 8C 3E
  can0  000   [8]  22 17 00 00 23 E1 5A 42
  can0  000   [8]  22 18 00 00 8C B9 9B 3E
  can0  000   [8]  22 21 00 00 8C B9 9B 3E
  can0  000   [8]  22 2A 00 00 01 18 00 00
  can0  000   [8]  22 2B 00 00 01 18 00 00
  can0  000   [8]  22 06 00 00 00 40 0A 42
  can0  000   [8]  22 07 00 00 00 40 05 42
  can0  000   [8]  22 11 00 00 DF 44 5A 42
  can0  000   [8]  22 12 00 00 D5 C7 C2 41
  can0  000   [8]  22 13 00 00 ED BE 59 42
  can0  000   [8]  22 14 00 00 2C 4B C4 41
  can0  000   [8]  22 15 00 00 D5 C7 C2 41
  can0  000   [8]  22 16 00 00 A5 BD A1 3E
  can0  000   [8]  22 17 00 00 23 E1 5A 42
  can0  000   [8]  22 18 00 00 FC A9 71 3E
  can0  000   [8]  22 21 00 00 FC A9 71 3E
  can0  000   [8]  22 2A 00 00 01 18 00 00
  can0  000   [8]  22 2B 00 00 01 18 00 00
  can0  000   [8]  22 06 00 00 00 80 0A 42
  can0  000   [8]  22 07 00 00 00 40 05 42
  can0  000   [8]  22 11 00 00 D7 87 5A 42
  can0  000   [8]  22 12 00 00 02 AE C2 41
  can0  000   [8]  22 13 00 00 A1 65 59 42
  can0  000   [8]  22 14 00 00 CB F0 C3 41
  can0  000   [8]  22 15 00 00 02 AE C2 41
  can0  000   [8]  22 16 00 00 2F DD 84 3E
  can0  000   [8]  22 17 00 00 7D B4 5A 42
  can0  000   [8]  22 18 00 00 06 12 74 3E
  can0  000   [8]  22 21 00 00 06 12 74 3E
  can0  000   [8]  22 2A 00 00 01 18 00 00
  can0  000   [8]  22 2B 00 00 01 18 00 00
  can0  000   [8]  22 06 00 00 00 40 0A 42
  can0  000   [8]  22 07 00 00 00 C0 03 42
  can0  000   [8]  22 11 00 00 8C 2E 5A 42
  can0  000   [8]  22 12 00 00 A7 E1 C2 41
  can0  000   [8]  22 13 00 00 FB 38 59 42
  can0  000   [8]  22 14 00 00 3D B0 C3 41
  can0  000   [8]  22 15 00 00 A7 E1 C2 41
  can0  000   [8]  22 16 00 00 42 AD 89 3E
  can0  000   [8]  22 17 00 00 7D B4 5A 42
  can0  000   [8]  22 18 00 00 47 E1 8A 3E
  can0  000   [8]  22 21 00 00 47 E1 8A 3E
  can0  000   [8]  22 2A 00 00 01 18 00 00
  can0  000   [8]  22 2B 00 00 01 18 00 00
  can0  000   [8]  22 06 00 00 00 40 0A 42
  can0  000   [8]  22 07 00 00 00 40 03 42
  can0  000   [8]  22 11 00 00 8C 2E 5A 42
  can0  000   [8]  22 12 00 00 BD D4 C2 41
  can0  000   [8]  22 13 00 00 F4 7B 59 42
  can0  000   [8]  22 14 00 00 CB F0 C3 41
  can0  000   [8]  22 15 00 00 BD D4 C2 41
  can0  000   [8]  22 16 00 00 9B 55 9F 3E
  can0  000   [8]  22 17 00 00 D0 CA 5A 42
  can0  000   [8]  22 18 00 00 FC A9 71 3E
  can0  000   [8]  22 21 00 00 FC A9 71 3E
  can0  000   [8]  22 2A 00 00 01 18 00 00
  can0  000   [8]  22 2B 00 00 01 18 00 00
  can0  000   [8]  22 06 00 00 00 40 0B 42
  can0  000   [8]  22 07 00 00 00 40 05 42
  can0  000   [8]  22 11 00 00 32 5B 5A 42
  can0  000   [8]  22 12 00 00 63 08 C3 41
  can0  000   [8]  22 13 00 00 9A A8 59 42
  can0  000   [8]  22 14 00 00 3D B0 C3 41
  can0  000   [8]  22 15 00 00 63 08 C3 41
  can0  000   [8]  22 16 00 00 34 11 86 3E
  can0  000   [8]  22 17 00 00 23 E1 5A 42
  can0  000   [8]  22 18 00 00 FC A9 71 3E
  can0  000   [8]  22 21 00 00 FC A9 71 3E
  can0  000   [8]  22 2A 00 00 01 18 00 00
  can0  000   [8]  22 2B 00 00 01 18 00 00
  can0  000   [8]  22 06 00 00 00 80 0A 42
  can0  000   [8]  22 07 00 00 00 C0 04 42
  can0  000   [8]  22 11 00 00 32 5B 5A 42
  can0  000   [8]  22 12 00 00 19 A1 C2 41
  can0  000   [8]  22 13 00 00 F4 7B 59 42
  can0  000   [8]  22 14 00 00 6A 96 C3 41
  can0  000   [8]  22 15 00 00 19 A1 C2 41
  can0  000   [8]  22 16 00 00 42 AD 89 3E
  can0  000   [8]  22 17 00 00 D0 CA 5A 42
  can0  000   [8]  22 18 00 00 20 41 81 3E
  can0  000   [8]  22 21 00 00 20 41 81 3E
  can0  000   [8]  22 2A 00 00 01 18 00 00
  can0  000   [8]  22 2B 00 00 01 18 00 00
  can0  000   [8]  22 06 00 00 00 00 0A 42
  can0  000   [8]  22 07 00 00 00 C0 03 42
  can0  000   [8]  22 11 00 00 32 5B 5A 42
  can0  000   [8]  22 12 00 00 A7 E1 C2 41
  can0  000   [8]  22 13 00 00 9A A8 59 42
  can0  000   [8]  22 14 00 00 26 BD C3 41
  can0  000   [8]  22 15 00 00 A7 E1 C2 41
  can0  000   [8]  22 16 00 00 6A 4D 93 3E
  can0  000   [8]  22 17 00 00 7D B4 5A 42
  can0  000   [8]  22 18 00 00 18 E2 78 3E
  can0  000   [8]  22 21 00 00 18 E2 78 3E
  can0  000   [8]  22 2A 00 00 01 18 00 00
  can0  000   [8]  22 2B 00 00 01 18 00 00
  can0  000   [8]  22 06 00 00 00 40 09 42
  can0  000   [8]  22 07 00 00 00 40 05 42
  can0  000   [8]  22 11 00 00 84 71 5A 42
  can0  000   [8]  22 12 00 00 BD D4 C2 41
  can0  000   [8]  22 13 00 00 47 92 59 42
  can0  000   [8]  22 14 00 00 9E 0A C4 41
  can0  000   [8]  22 15 00 00 BD D4 C2 41
  can0  000   [8]  22 16 00 00 25 75 82 3E
  can0  000   [8]  22 17 00 00 D7 87 5A 42
  can0  000   [8]  22 18 00 00 F2 41 6F 3E
  can0  000   [8]  22 21 00 00 F2 41 6F 3E
  can0  000   [8]  22 2A 00 00 01 18 00 00
  can0  000   [8]  22 2B 00 00 01 18 00 00
  can0  000   [8]  22 06 00 00 00 00 0C 42
  can0  000   [8]  22 07 00 00 00 40 03 42
  can0  000   [8]  22 11 00 00 D7 87 5A 42
  can0  000   [8]  22 12 00 00 EC BA C2 41
  can0  000   [8]  22 13 00 00 47 92 59 42
  can0  000   [8]  22 14 00 00 53 A3 C3 41
  can0  000   [8]  22 15 00 00 EC BA C2 41
  can0  000   [8]  22 16 00 00 56 7D 8E 3E
  can0  000   [8]  22 17 00 00 7D B4 5A 42
  can0  000   [8]  22 18 00 00 10 7A 76 3E
  can0  000   [8]  22 21 00 00 10 7A 76 3E
  can0  000   [8]  22 2A 00 00 01 18 00 00
  can0  000   [8]  22 2B 00 00 01 18 00 00
  can0  000   [8]  22 06 00 00 00 80 09 42
  can0  000   [8]  22 07 00 00 00 00 06 42
  can0  000   [8]  22 11 00 00 2A 9E 5A 42
  can0  000   [8]  22 12 00 00 EC BA C2 41
  can0  000   [8]  22 13 00 00 4E 4F 59 42
  can0  000   [8]  22 14 00 00 E1 E3 C3 41
  can0  000   [8]  22 15 00 00 EC BA C2 41
  can0  000   [8]  22 16 00 00 47 E1 8A 3E
  can0  000   [8]  22 17 00 00 D0 CA 5A 42
  can0  000   [8]  22 18 00 00 10 7A 76 3E
  can0  000   [8]  22 21 00 00 10 7A 76 3E
  can0  000   [8]  22 2A 00 00 01 18 00 00
  can0  000   [8]  22 2B 00 00 01 18 00 00
  can0  000   [8]  22 06 00 00 00 80 0B 42
  can0  000   [8]  22 07 00 00 00 C0 04 42
  can0  000   [8]  22 11 00 00 DF 44 5A 42
  can0  000   [8]  22 12 00 00 80 89 C3 41
  can0  000   [8]  22 13 00 00 40 D5 59 42
  can0  000   [8]  22 14 00 00 0F CA C3 41
  can0  000   [8]  22 15 00 00 80 89 C3 41
  can0  000   [8]  22 16 00 00 2A A9 83 3E
  can0  000   [8]  22 17 00 00 23 E1 5A 42
  can0  000   [8]  22 18 00 00 FC A9 71 3E
  can0  000   [8]  22 21 00 00 FC A9 71 3E
  can0  000   [8]  22 2A 00 00 01 18 00 00
  can0  000   [8]  22 2B 00 00 01 18 00 00
  can0  000   [8]  22 06 00 00 00 80 09 42
  can0  000   [8]  22 07 00 00 00 40 05 42
  can0  000   [8]  22 11 00 00 84 71 5A 42
  can0  000   [8]  22 12 00 00 36 22 C3 41
  can0  000   [8]  22 13 00 00 40 D5 59 42
  can0  000   [8]  22 14 00 00 0F CA C3 41
  can0  000   [8]  22 15 00 00 36 22 C3 41
  can0  000   [8]  22 16 00 00 51 49 8D 3E
  can0  000   [8]  22 17 00 00 76 F7 5A 42
  can0  000   [8]  22 18 00 00 06 12 74 3E
  can0  000   [8]  22 21 00 00 06 12 74 3E
  can0  000   [8]  22 2A 00 00 01 18 00 00
  can0  000   [8]  22 2B 00 00 01 18 00 00
  can0  000   [8]  22 06 00 00 00 C0 0A 42
  can0  000   [8]  22 07 00 00 00 00 05 42
  can0  000   [8]  22 11 00 00 32 5B 5A 42
  can0  000   [8]  22 12 00 00 B4 FD C3 41
  can0  000   [8]  22 13 00 00 39 18 5A 42
  can0  000   [8]  22 14 00 00 6A 96 C3 41
  can0  000   [8]  22 15 00 00 B4 FD C3 41
  can0  000   [8]  22 16 00 00 34 11 86 3E
  can0  000   [8]  22 17 00 00 68 7D 5B 42
  can0  000   [8]  22 18 00 00 10 7A 76 3E
  can0  000   [8]  22 21 00 00 10 7A 76 3E
  can0  000   [8]  22 2A 00 00 01 18 00 00
  can0  000   [8]  22 2B 00 00 01 18 00 00
  can0  000   [8]  22 06 00 00 00 00 0B 42
  can0  000   [8]  22 07 00 00 00 00 04 42
  can0  000   [8]  22 11 00 00 8C 2E 5A 42
  can0  000   [8]  22 12 00 00 19 A1 C2 41
  can0  000   [8]  22 13 00 00 9A A8 59 42
  can0  000   [8]  22 14 00 00 97 7C C3 41
  can0  000   [8]  22 15 00 00 19 A1 C2 41
  can0  000   [8]  22 16 00 00 42 AD 89 3E
  can0  000   [8]  22 17 00 00 D0 CA 5A 42
  can0  000   [8]  22 18 00 00 FC A9 71 3E
  can0  000   [8]  22 21 00 00 FC A9 71 3E
  can0  000   [8]  22 2A 00 00 01 18 00 00
  can0  000   [8]  22 2B 00 00 01 18 00 00
  can0  000   [8]  22 06 00 00 00 80 0B 42
  can0  00A   [8]  00 06 00 00 00 00 00 00
  can0  000   [8]  0A 06 00 00 50 12 0E 42
  can0  000   [8]  22 07 00 00 00 80 04 42
  can0  000   [8]  22 11 00 00 DF 44 5A 42
  can0  000   [8]  22 12 00 00 7A FB C2 41
  can0  000   [8]  22 13 00 00 4E 4F 59 42
  can0  000   [8]  22 14 00 00 97 7C C3 41
  can0  000   [8]  22 15 00 00 7A FB C2 41
  can0  000   [8]  22 16 00 00 4C 15 8C 3E
  can0  000   [8]  22 17 00 00 2A 9E 5A 42
  can0  000   [8]  22 18 00 00 FC A9 71 3E
  can0  000   [8]  22 21 00 00 FC A9 71 3E
  can0  000   [8]  22 2A 00 00 01 18 00 00
  can0  000   [8]  22 2B 00 00 01 18 00 00
  can0  000   [8]  22 06 00 00 00 80 0A 42
  can0  000   [8]  22 07 00 00 00 40 03 42
  can0  000   [8]  22 11 00 00 D7 87 5A 42
  can0  000   [8]  22 12 00 00 BD D4 C2 41
  can0  000   [8]  22 13 00 00 47 92 59 42
  can0  000   [8]  22 14 00 00 F8 D6 C3 41
  can0  000   [8]  22 15 00 00 BD D4 C2 41
  can0  000   [8]  22 16 00 00 2F DD 84 3E
  can0  000   [8]  22 17 00 00 D0 CA 5A 42
  can0  000   [8]  22 18 00 00 18 E2 78 3E
  can0  000   [8]  22 21 00 00 18 E2 78 3E
  can0  000   [8]  22 2A 00 00 01 18 00 00
  can0  000   [8]  22 2B 00 00 01 18 00 00
  can0  000   [8]  22 06 00 00 00 80 0A 42
  can0  000   [8]  22 07 00 00 00 C0 03 42
  can0  000   [8]  22 11 00 00 DF 44 5A 42
  can0  000   [8]  22 12 00 00 19 A1 C2 41
  can0  000   [8]  22 13 00 00 40 D5 59 42
  can0  000   [8]  22 14 00 00 B4 FD C3 41
  can0  000   [8]  22 15 00 00 19 A1 C2 41
  can0  000   [8]  22 16 00 00 51 49 8D 3E
  can0  000   [8]  22 17 00 00 2A 9E 5A 42
  can0  000   [8]  22 18 00 00 FC A9 71 3E
  can0  000   [8]  22 21 00 00 FC A9 71 3E
  can0  000   [8]  22 2A 00 00 01 18 00 00
  can0  000   [8]  22 2B 00 00 01 18 00 00
  can0  00A   [8]  00 08 00 00 00 00 00 00
  can0  000   [8]  0A 08 00 00 08 64 0F 42
  can0  000   [8]  22 06 00 00 00 40 0B 42
  can0  000   [8]  22 07 00 00 00 00 05 42
  can0  000   [8]  22 11 00 00 84 71 5A 42
  can0  000   [8]  22 12 00 00 7A FB C2 41
  can0  000   [8]  22 13 00 00 ED BE 59 42
  can0  000   [8]  22 14 00 00 87 17 C4 41
  can0  000   [8]  22 15 00 00 7A FB C2 41
  can0  000   [8]  22 16 00 00 3E 79 88 3E
  can0  000   [8]  22 17 00 00 23 E1 5A 42
  can0  000   [8]  22 18 00 00 10 7A 76 3E
  can0  000   [8]  22 21 00 00 10 7A 76 3E
  can0  000   [8]  22 2A 00 00 01 18 00 00
  can0  000   [8]  22 2B 00 00 01 18 00 00
  can0  00A   [8]  00 0A 00 00 00 00 00 00
  can0  000   [8]  0A 0A 00 00 B0 AC FB 41
  can0  00A   [8]  00 0C 00 00 00 00 00 00
  can0  000   [8]  0A 0C 00 00 58 AD D1 41
  can0  00A   [8]  00 11 00 00 00 00 00 00
  can0  000   [8]  0A 11 00 00 00 00 00 00
  can0  00A   [8]  00 12 00 00 00 00 00 00
  can0  000   [8]  0A 12 00 00 00 00 00 00
  can0  00A   [8]  00 15 00 00 00 00 00 00
  can0  000   [8]  0A 15 00 00 00 00 04 43
  can0  00A   [8]  00 16 00 00 00 00 00 00
  can0  000   [8]  0A 16 00 00 00 00 C0 40
  can0  00A   [8]  00 1B 00 00 00 00 00 00
  can0  000   [8]  0A 1B 00 00 00 00 00 00
  can0  00A   [8]  00 1C 00 00 00 00 00 00
  can0  000   [8]  0A 1C 00 00 00 00 80 3F
  can0  000   [8]  22 06 00 00 00 C0 09 42
  can0  000   [8]  22 07 00 00 00 C0 05 42
  can0  000   [8]  22 11 00 00 D7 87 5A 42
  can0  000   [8]  22 12 00 00 46 87 C2 41
  can0  000   [8]  22 13 00 00 47 92 59 42
  can0  000   [8]  22 14 00 00 6A 96 C3 41
  can0  000   [8]  22 15 00 00 46 87 C2 41
  can0  000   [8]  22 16 00 00 39 45 87 3E
  can0  000   [8]  22 17 00 00 2A 9E 5A 42
  can0  000   [8]  22 18 00 00 10 7A 76 3E
  can0  000   [8]  22 21 00 00 10 7A 76 3E
  can0  000   [8]  22 2A 00 00 01 18 00 00
  can0  000   [8]  22 2B 00 00 01 18 00 00
  can0  00A   [8]  00 07 00 00 00 00 00 00
  can0  000   [8]  0A 07 00 00 50 12 0E 42
  can0  00A   [8]  00 09 00 00 00 00 00 00
  can0  000   [8]  0A 09 00 00 E0 E2 0B 42
  can0  00A   [8]  00 0B 00 00 00 00 00 00
  can0  000   [8]  0A 0B 00 00 B0 18 F0 41
  can0  00A   [8]  00 0D 00 00 00 00 00 00
  can0  000   [8]  0A 0D 00 00 00 23 D8 41
  can0  00A   [8]  00 13 00 00 00 00 00 00
  can0  000   [8]  0A 13 00 00 00 00 00 00
  can0  00A   [8]  00 14 00 00 00 00 00 00
  can0  000   [8]  0A 14 00 00 00 00 00 00
  can0  00A   [8]  00 17 00 00 00 00 00 00
  can0  000   [8]  0A 17 00 00 00 00 1B 43
  can0  00A   [8]  00 18 00 00 00 00 00 00
  can0  000   [8]  0A 18 00 00 00 00 00 40
  can0  00A   [8]  00 1D 00 00 00 00 00 00
  can0  000   [8]  0A 1D 00 00 00 00 00 00
  can0  00A   [8]  00 1E 00 00 00 00 00 00
  can0  000   [8]  0A 1E 00 00 00 00 80 3F
  can0  00B   [8]  00 06 00 00 00 00 00 00
  can0  000   [8]  0B 06 00 00 78 73 0B 42
  can0  00B   [8]  00 08 00 00 00 00 00 00
  can0  000   [8]  0B 08 00 00 F0 D4 0F 42
  can0  00B   [8]  00 0A 00 00 00 00 00 00
  can0  000   [8]  0B 0A 00 00 48 26 0A 42
  can0  00B   [8]  00 0C 00 00 00 00 00 00
  can0  000   [8]  0B 0C 00 00 40 A5 EF 41
  can0  00B   [8]  00 11 00 00 00 00 00 00
  can0  000   [8]  0B 11 00 00 00 00 00 00
  can0  00B   [8]  00 12 00 00 00 00 00 00
  can0  000   [8]  0B 12 00 00 00 00 00 00
  can0  00B   [8]  00 15 00 00 00 00 00 00
  can0  000   [8]  0B 15 00 00 00 00 2F 43
  can0  00B   [8]  00 16 00 00 00 00 00 00
  can0  000   [8]  0B 16 00 00 00 00 A0 40
  can0  00B   [8]  00 1B 00 00 00 00 00 00
  can0  000   [8]  0B 1B 00 00 00 00 00 00
  can0  00B   [8]  00 1C 00 00 00 00 00 00
  can0  000   [8]  0B 1C 00 00 00 00 80 3F
  can0  00B   [8]  00 07 00 00 00 00 00 00
  can0  000   [8]  0B 07 00 00 08 64 0F 42
  can0  00B   [8]  00 09 00 00 00 00 00 00
  can0  000   [8]  0B 09 00 00 C8 28 11 42
  can0  00B   [8]  00 0B 00 00 00 00 00 00
  can0  000   [8]  0B 0B 00 00 70 D7 FA 41
  can0  00B   [8]  00 0D 00 00 00 00 00 00
  can0  000   [8]  0B 0D 00 00 74 B7 20 42
  can0  00B   [8]  00 13 00 00 00 00 00 00
  can0  000   [8]  22 06 00 00 00 C0 09 42
  can0  000   [8]  0B 13 00 00 00 00 00 00
  can0  000   [8]  22 07 00 00 00 40 04 42
  can0  000   [8]  22 11 00 00 DF 44 5A 42
  can0  000   [8]  22 12 00 00 D5 C7 C2 41
  can0  000   [8]  22 13 00 00 A1 65 59 42
  can0  000   [8]  22 14 00 00 87 17 C4 41
  can0  000   [8]  22 15 00 00 D5 C7 C2 41
  can0  000   [8]  22 16 00 00 4C 15 8C 3E
  can0  000   [8]  22 17 00 00 7D B4 5A 42
  can0  000   [8]  22 18 00 00 06 12 74 3E
  can0  000   [8]  22 21 00 00 06 12 74 3E
  can0  000   [8]  22 2A 00 00 01 18 00 00
  can0  000   [8]  22 2B 00 00 01 18 00 00
  can0  00B   [8]  00 14 00 00 00 00 00 00
  can0  000   [8]  0B 14 00 00 00 00 00 00
  can0  00B   [8]  00 17 00 00 00 00 00 00
  can0  000   [8]  0B 17 00 00 00 00 04 43
  can0  00B   [8]  00 18 00 00 00 00 00 00
  can0  000   [8]  0B 18 00 00 00 00 00 00
  can0  00B   [8]  00 1D 00 00 00 00 00 00
  can0  000   [8]  0B 1D 00 00 00 00 00 00
  can0  00B   [8]  00 1E 00 00 00 00 00 00
  can0  000   [8]  0B 1E 00 00 00 00 80 3F
  can0  00C   [8]  00 06 00 00 00 00 00 00
  can0  000   [8]  0C 06 00 00 10 46 10 42
  can0  00C   [8]  00 08 00 00 00 00 00 00
  can0  000   [8]  0C 08 00 00 68 52 0C 42
  can0  00C   [8]  00 0A 00 00 00 00 00 00
  can0  000   [8]  0C 0A 00 00 50 09 F5 41
  can0  00C   [8]  00 0C 00 00 00 00 00 00
  can0  000   [8]  0C 0C 00 00 7C 50 26 42
  can0  00C   [8]  00 11 00 00 00 00 00 00
  can0  000   [8]  0C 11 00 00 00 00 00 00
  can0  00C   [8]  00 12 00 00 00 00 00 00
  can0  000   [8]  0C 12 00 00 00 00 00 00
  can0  00C   [8]  00 15 00 00 00 00 00 00
  can0  000   [8]  0C 15 00 00 00 00 03 43
  can0  00C   [8]  00 16 00 00 00 00 00 00
  can0  000   [8]  0C 16 00 00 00 00 00 00
  can0  00C   [8]  00 1B 00 00 00 00 00 00
  can0  000   [8]  0C 1B 00 00 00 00 00 00
  can0  00C   [8]  00 1C 00 00 00 00 00 00
  can0  000   [8]  0C 1C 00 00 00 00 80 3F
  can0  00C   [8]  00 07 00 00 00 00 00 00
  can0  000   [8]  0C 07 00 00 10 46 10 42
  can0  00C   [8]  00 09 00 00 00 00 00 00
  can0  000   [8]  0C 09 00 00 48 26 0A 42
  can0  00C   [8]  00 0B 00 00 00 00 00 00
  can0  000   [8]  0C 0B 00 00 70 02 FA 41
  can0  00C   [8]  00 0D 00 00 00 00 00 00
  can0  000   [8]  0C 0D 00 00 E0 FC E1 41
  can0  00C   [8]  00 13 00 00 00 00 00 00
  can0  000   [8]  0C 13 00 00 00 00 00 00
  can0  00C   [8]  00 14 00 00 00 00 00 00
  can0  000   [8]  0C 14 00 00 00 00 00 00
  can0  00C   [8]  00 17 00 00 00 00 00 00
  can0  000   [8]  0C 17 00 00 00 00 F6 42
  can0  00C   [8]  00 18 00 00 00 00 00 00
  can0  000   [8]  0C 18 00 00 00 00 00 00
  can0  00C   [8]  00 1D 00 00 00 00 00 00
  can0  000   [8]  0C 1D 00 00 00 00 00 00
  can0  00C   [8]  00 1E 00 00 00 00 00 00
  can0  000   [8]  0C 1E 00 00 00 00 80 3F
  can0  00D   [8]  00 06 00 00 00 00 00 00
  can0  000   [8]  0D 06 00 00 38 0C 12 42
  can0  00D   [8]  00 08 00 00 00 00 00 00
  can0  000   [8]  0D 08 00 00 40 04 0B 42
  can0  000   [8]  22 06 00 00 00 00 0A 42
  can0  000   [8]  22 07 00 00 00 40 04 42
  can0  000   [8]  22 11 00 00 D7 87 5A 42
  can0  000   [8]  22 12 00 00 BD D4 C2 41
  can0  000   [8]  22 13 00 00 9A A8 59 42
  can0  000   [8]  22 14 00 00 F8 D6 C3 41
  can0  000   [8]  22 15 00 00 BD D4 C2 41
  can0  000   [8]  22 16 00 00 2F DD 84 3E
  can0  000   [8]  22 17 00 00 76 F7 5A 42
  can0  000   [8]  22 18 00 00 06 12 74 3E
  can0  000   [8]  22 21 00 00 06 12 74 3E
  can0  000   [8]  22 2A 00 00 01 18 00 00
  can0  000   [8]  22 2B 00 00 01 18 00 00
  can0  00D   [8]  00 0A 00 00 00 00 00 00
  can0  000   [8]  0D 0A 00 00 70 C4 00 42
  can0  00D   [8]  00 0C 00 00 00 00 00 00
  can0  000   [8]  0D 0C 00 00 78 91 22 42
  can0  00D   [8]  00 11 00 00 00 00 00 00
  can0  000   [8]  0D 11 00 00 00 00 00 00
  can0  00D   [8]  00 12 00 00 00 00 00 00
  can0  000   [8]  0D 12 00 00 00 00 00 00
  can0  00D   [8]  00 15 00 00 00 00 00 00
  can0  000   [8]  0D 15 00 00 00 00 C0 42
  can0  00D   [8]  00 16 00 00 00 00 00 00
  can0  000   [8]  0D 16 00 00 00 00 00 00
  can0  00D   [8]  00 1B 00 00 00 00 00 00
  can0  000   [8]  0D 1B 00 00 00 00 00 00
  can0  00D   [8]  00 1C 00 00 00 00 00 00
  can0  000   [8]  0D 1C 00 00 00 00 80 3F
  can0  00D   [8]  00 07 00 00 00 00 00 00
  can0  000   [8]  0D 07 00 00 38 7E 12 42
  can0  00D   [8]  00 09 00 00 00 00 00 00
  can0  000   [8]  0D 09 00 00 50 B7 10 42
  can0  00D   [8]  00 0B 00 00 00 00 00 00
  can0  000   [8]  0D 0B 00 00 78 73 0B 42
  can0  00D   [8]  00 0D 00 00 00 00 00 00
  can0  000   [8]  0D 0D 00 00 3C 4F 1D 42
  can0  00D   [8]  00 13 00 00 00 00 00 00
  can0  000   [8]  0D 13 00 00 00 00 00 00
  can0  00D   [8]  00 14 00 00 00 00 00 00
  can0  000   [8]  0D 14 00 00 00 00 00 00
  can0  00D   [8]  00 17 00 00 00 00 00 00
  can0  000   [8]  0D 17 00 00 00 00 9E 42
  can0  00D   [8]  00 18 00 00 00 00 00 00
  can0  000   [8]  0D 18 00 00 00 00 00 00
  can0  00D   [8]  00 1D 00 00 00 00 00 00
  can0  000   [8]  0D 1D 00 00 00 00 00 00
  can0  00D   [8]  00 1E 00 00 00 00 00 00
  can0  000   [8]  0D 1E 00 00 00 00 80 3F
  can0  00E   [8]  00 06 00 00 00 00 00 00
  can0  000   [8]  0E 06 00 00 C8 62 13 42
  can0  00E   [8]  00 08 00 00 00 00 00 00
  can0  000   [8]  0E 08 00 00 B0 88 16 42
  can0  00E   [8]  00 0A 00 00 00 00 00 00
  can0  000   [8]  0E 0A 00 00 18 47 06 42
  can0  00E   [8]  00 0C 00 00 00 00 00 00
  can0  000   [8]  0E 0C 00 00 10 C3 F6 41
  can0  00E   [8]  00 11 00 00 00 00 00 00
  can0  000   [8]  0E 11 00 00 00 00 00 00
  can0  00E   [8]  00 12 00 00 00 00 00 00
  can0  000   [8]  0E 12 00 00 00 00 00 00
  can0  00E   [8]  00 15 00 00 00 00 00 00
  can0  000   [8]  0E 15 00 00 00 00 18 43
  can0  000   [8]  22 06 00 00 00 40 0C 42
  can0  000   [8]  22 07 00 00 00 00 05 42
  can0  000   [8]  22 11 00 00 DF 44 5A 42
  can0  000   [8]  22 12 00 00 A7 E1 C2 41
  can0  000   [8]  22 13 00 00 47 92 59 42
  can0  000   [8]  22 14 00 00 3D B0 C3 41
  can0  000   [8]  22 15 00 00 A7 E1 C2 41
  can0  000   [8]  22 16 00 00 3E 79 88 3E
  can0  000   [8]  22 17 00 00 7D B4 5A 42
  can0  00E   [8]  00 16 00 00 00 00 00 00
  can0  000   [8]  0E 16 00 00 00 00 00 00
  can0  000   [8]  22 18 00 00 F2 41 6F 3E
  can0  000   [8]  22 21 00 00 F2 41 6F 3E
  can0  000   [8]  22 2A 00 00 01 18 00 00
  can0  000   [8]  22 2B 00 00 01 18 00 00
  can0  00E   [8]  00 1B 00 00 00 00 00 00
  can0  000   [8]  0E 1B 00 00 00 00 00 00
  can0  00E   [8]  00 1C 00 00 00 00 00 00
  can0  000   [8]  0E 1C 00 00 00 00 80 3F
  can0  00E   [8]  00 07 00 00 00 00 00 00
  can0  000   [8]  0E 07 00 00 C8 62 13 42
  can0  00E   [8]  00 09 00 00 00 00 00 00
  can0  000   [8]  0E 09 00 00 68 9A 11 42
  can0  00E   [8]  00 0B 00 00 00 00 00 00
  can0  000   [8]  0E 0B 00 00 00 90 F2 41
  can0  00E   [8]  00 0D 00 00 00 00 00 00
  can0  000   [8]  0E 0D 00 00 20 E6 2C 42
  can0  00E   [8]  00 13 00 00 00 00 00 00
  can0  000   [8]  0E 13 00 00 00 00 00 00
  can0  00E   [8]  00 14 00 00 00 00 00 00
  can0  000   [8]  0E 14 00 00 00 00 00 00
  can0  00E   [8]  00 17 00 00 00 00 00 00
  can0  000   [8]  0E 17 00 00 00 00 19 43
  can0  00E   [8]  00 18 00 00 00 00 00 00
  can0  000   [8]  0E 18 00 00 00 00 00 00
  can0  00E   [8]  00 1D 00 00 00 00 00 00
  can0  000   [8]  0E 1D 00 00 00 00 00 00
  can0  00E   [8]  00 1E 00 00 00 00 00 00
  can0  000   [8]  0E 1E 00 00 00 00 80 3F
  can0  00F   [8]  00 06 00 00 00 00 00 00
  can0  000   [8]  0F 06 00 00 C8 62 13 42
  can0  00F   [8]  00 08 00 00 00 00 00 00
  can0  000   [8]  0F 08 00 00 00 E5 17 42
  can0  00F   [8]  00 0A 00 00 00 00 00 00
  can0  000   [8]  0F 0A 00 00 08 64 0F 42
  can0  00F   [8]  00 0C 00 00 00 00 00 00
  can0  000   [8]  0F 0C 00 00 B8 B7 25 42
  can0  00F   [8]  00 11 00 00 00 00 00 00
  can0  000   [8]  0F 11 00 00 00 00 00 00
  can0  00F   [8]  00 12 00 00 00 00 00 00
  can0  000   [8]  0F 12 00 00 00 00 00 00
  can0  00F   [8]  00 15 00 00 00 00 00 00
  can0  000   [8]  0F 15 00 00 00 00 E4 42
  can0  00F   [8]  00 16 00 00 00 00 00 00
  can0  000   [8]  0F 16 00 00 00 00 60 41
  can0  00F   [8]  00 1B 00 00 00 00 00 00
  can0  000   [8]  0F 1B 00 00 00 00 00 00
  can0  00F   [8]  00 1C 00 00 00 00 00 00
  can0  000   [8]  0F 1C 00 00 00 00 80 3F
  can0  00F   [8]  00 07 00 00 00 00 00 00
  can0  000   [8]  0F 07 00 00 68 F0 12 42
  can0  00F   [8]  00 09 00 00 00 00 00 00
  can0  000   [8]  0F 09 00 00 50 B7 10 42
  can0  00F   [8]  00 0B 00 00 00 00 00 00
  can0  000   [8]  0F 0B 00 00 68 9A 11 42
  can0  000   [8]  22 06 00 00 00 00 0B 42
  can0  000   [8]  22 07 00 00 00 40 05 42
  can0  000   [8]  22 11 00 00 8C 2E 5A 42
  can0  000   [8]  22 12 00 00 A7 E1 C2 41
  can0  000   [8]  22 13 00 00 47 92 59 42
  can0  000   [8]  22 14 00 00 0F CA C3 41
  can0  000   [8]  22 15 00 00 A7 E1 C2 41
  can0  000   [8]  22 16 00 00 42 AD 89 3E
  can0  00F   [8]  00 0D 00 00 00 00 00 00
  can0  000   [8]  22 17 00 00 2A 9E 5A 42
  can0  000   [8]  22 18 00 00 06 12 74 3E
  can0  000   [8]  22 21 00 00 06 12 74 3E
  can0  000   [8]  22 2A 00 00 01 18 00 00
  can0  000   [8]  22 2B 00 00 01 18 00 00
  can0  000   [8]  0F 0D 00 00 64 94 1C 42
  can0  00F   [8]  00 13 00 00 00 00 00 00
  can0  000   [8]  0F 13 00 00 00 00 00 00
  can0  00F   [8]  00 14 00 00 00 00 00 00
  can0  000   [8]  0F 14 00 00 00 00 00 00
  can0  00F   [8]  00 17 00 00 00 00 00 00
  can0  000   [8]  0F 17 00 00 00 00 C6 42
  can0  00F   [8]  00 18 00 00 00 00 00 00
  can0  000   [8]  0F 18 00 00 00 00 00 00
  can0  00F   [8]  00 1D 00 00 00 00 00 00
  can0  000   [8]  0F 1D 00 00 00 00 00 00
  can0  00F   [8]  00 1E 00 00 00 00 00 00
  can0  000   [8]  0F 1E 00 00 00 00 80 3F
  can0  010   [8]  00 06 00 00 00 00 00 00
  can0  000   [8]  10 06 00 00 08 64 0F 42
  can0  010   [8]  00 08 00 00 00 00 00 00
  can0  000   [8]  10 08 00 00 78 73 0B 42
  can0  010   [8]  00 0A 00 00 00 00 00 00
  can0  000   [8]  10 0A 00 00 00 36 F4 41
  can0  010   [8]  00 0C 00 00 00 00 00 00
  can0  000   [8]  10 0C 00 00 88 64 00 42
  can0  010   [8]  00 11 00 00 00 00 00 00
  can0  000   [8]  10 11 00 00 00 00 00 00
  can0  010   [8]  00 12 00 00 00 00 00 00
  can0  000   [8]  10 12 00 00 00 00 00 00
  can0  010   [8]  00 15 00 00 00 00 00 00
  can0  000   [8]  10 15 00 00 00 00 05 43
  can0  010   [8]  00 16 00 00 00 00 00 00
  can0  000   [8]  10 16 00 00 00 00 00 00
  can0  010   [8]  00 1B 00 00 00 00 00 00
  can0  000   [8]  10 1B 00 00 00 00 00 00
  can0  010   [8]  00 1C 00 00 00 00 00 00
  can0  000   [8]  10 1C 00 00 00 00 80 3F
  can0  010   [8]  00 07 00 00 00 00 00 00
  can0  000   [8]  10 07 00 00 28 95 0A 42
  can0  010   [8]  00 09 00 00 00 00 00 00
  can0  000   [8]  10 09 00 00 40 04 0B 42
  can0  010   [8]  00 0B 00 00 00 00 00 00
  can0  000   [8]  10 0B 00 00 00 36 F4 41
  can0  010   [8]  00 0D 00 00 00 00 00 00
  can0  000   [8]  10 0D 00 00 B8 17 04 42
  can0  010   [8]  00 13 00 00 00 00 00 00
  can0  000   [8]  10 13 00 00 00 00 00 00
  can0  010   [8]  00 14 00 00 00 00 00 00
  can0  000   [8]  10 14 00 00 00 00 00 00
  can0  010   [8]  00 17 00 00 00 00 00 00
  can0  000   [8]  10 17 00 00 00 00 28 43
  can0  010   [8]  00 18 00 00 00 00 00 00
  can0  000   [8]  10 18 00 00 00 00 30 41
  can0  010   [8]  00 1D 00 00 00 00 00 00
  can0  000   [8]  10 1D 00 00 00 00 00 00
  can0  000   [8]  22 06 00 00 00 C0 0A 42
  can0  000   [8]  22 07 00 00 00 C0 03 42
  can0  000   [8]  22 11 00 00 DF 44 5A 42
  can0  000   [8]  22 12 00 00 A7 E1 C2 41
  can0  000   [8]  22 13 00 00 A1 65 59 42
  can0  000   [8]  22 14 00 00 CB F0 C3 41
  can0  000   [8]  22 15 00 00 A7 E1 C2 41
  can0  000   [8]  22 16 00 00 3E 79 88 3E
  can0  000   [8]  22 17 00 00 84 71 5A 42
  can0  000   [8]  22 18 00 00 F2 41 6F 3E
  can0  000   [8]  22 21 00 00 F2 41 6F 3E
  can0  000   [8]  22 2A 00 00 01 18 00 00
  can0  000   [8]  22 2B 00 00 01 18 00 00
  can0  010   [8]  00 1E 00 00 00 00 00 00
  can0  000   [8]  10 1E 00 00 00 00 80 3F
  can0  011   [8]  00 06 00 00 00 00 00 00
  can0  000   [8]  11 06 00 00 38 7E 12 42
  can0  011   [8]  00 08 00 00 00 00 00 00
  can0  000   [8]  11 08 00 00 20 2E 15 42
  can0  011   [8]  00 0A 00 00 00 00 00 00
  can0  000   [8]  11 0A 00 00 F0 9B 01 42
  can0  011   [8]  00 0C 00 00 00 00 00 00
  can0  000   [8]  11 0C 00 00 98 C4 27 42
  can0  011   [8]  00 11 00 00 00 00 00 00
  can0  000   [8]  11 11 00 00 00 00 00 00
  can0  011   [8]  00 12 00 00 00 00 00 00
  can0  000   [8]  11 12 00 00 00 00 00 00
  can0  011   [8]  00 15 00 00 00 00 00 00
  can0  000   [8]  11 15 00 00 00 00 E4 42
  can0  011   [8]  00 16 00 00 00 00 00 00
  can0  000   [8]  11 16 00 00 00 00 E0 40
  can0  011   [8]  00 1B 00 00 00 00 00 00
  can0  000   [8]  11 1B 00 00 00 00 00 00
  can0  011   [8]  00 1C 00 00 00 00 00 00
  can0  000   [8]  11 1C 00 00 00 00 80 3F
  can0  011   [8]  00 07 00 00 00 00 00 00
  can0  000   [8]  11 07 00 00 38 7E 12 42
  can0  011   [8]  00 09 00 00 00 00 00 00
  can0  000   [8]  11 09 00 00 38 CE 18 42
  can0  011   [8]  00 0B 00 00 00 00 00 00
  can0  000   [8]  11 0B 00 00 B8 25 04 42
  can0  011   [8]  00 0D 00 00 00 00 00 00
  can0  000   [8]  11 0D 00 00 B0 77 F4 41
  can0  011   [8]  00 13 00 00 00 00 00 00
  can0  000   [8]  11 13 00 00 00 00 00 00
  can0  011   [8]  00 14 00 00 00 00 00 00
  can0  000   [8]  11 14 00 00 00 00 00 00
  can0  011   [8]  00 17 00 00 00 00 00 00
  can0  000   [8]  11 17 00 00 00 00 00 43
  can0  011   [8]  00 18 00 00 00 00 00 00
  can0  000   [8]  11 18 00 00 00 00 00 00
  can0  011   [8]  00 1D 00 00 00 00 00 00
  can0  000   [8]  11 1D 00 00 00 00 00 00
  can0  011   [8]  00 1E 00 00 00 00 00 00
  can0  000   [8]  11 1E 00 00 00 00 80 3F
  can0  000   [8]  22 06 00 00 00 80 0A 42
  can0  000   [8]  22 07 00 00 00 80 05 42
  can0  000   [8]  22 11 00 00 8C 2E 5A 42
  can0  000   [8]  22 12 00 00 BD D4 C2 41
  can0  000   [8]  22 13 00 00 47 92 59 42
  can0  000   [8]  22 14 00 00 0F CA C3 41
  can0  000   [8]  22 15 00 00 BD D4 C2 41
  can0  000   [8]  22 16 00 00 3E 79 88 3E
  can0  000   [8]  22 17 00 00 76 F7 5A 42
  can0  000   [8]  22 18 00 00 06 12 74 3E
  can0  000   [8]  22 21 00 00 06 12 74 3E
  can0  000   [8]  22 2A 00 00 01 18 00 00
  can0  000   [8]  22 2B 00 00 01 18 00 00
  can0  000   [8]  22 06 00 00 00 40 0B 42
  can0  000   [8]  22 07 00 00 00 80 04 42
  can0  000   [8]  22 11 00 00 84 71 5A 42
  can0  000   [8]  22 12 00 00 90 EE C2 41
  can0  000   [8]  22 13 00 00 F4 7B 59 42
  can0  000   [8]  22 14 00 00 3D B0 C3 41
  can0  000   [8]  22 15 00 00 90 EE C2 41
  can0  000   [8]  22 16 00 00 2F DD 84 3E
  can0  000   [8]  22 17 00 00 D0 CA 5A 42
  can0  000   [8]  22 18 00 00 06 12 74 3E
  can0  000   [8]  22 21 00 00 06 12 74 3E
  can0  000   [8]  22 2A 00 00 01 18 00 00
  can0  000   [8]  22 2B 00 00 01 18 00 00
  can0  000   [8]  22 06 00 00 00 80 0A 42
  can0  000   [8]  22 07 00 00 00 C0 04 42
  can0  000   [8]  22 11 00 00 DF 44 5A 42
  can0  000   [8]  22 12 00 00 EC BA C2 41
  can0  000   [8]  22 13 00 00 40 D5 59 42
  can0  000   [8]  22 14 00 00 3D B0 C3 41
  can0  000   [8]  22 15 00 00 EC BA C2 41
  can0  000   [8]  22 16 00 00 39 45 87 3E
  can0  000   [8]  22 17 00 00 23 E1 5A 42
  can0  000   [8]  22 18 00 00 06 12 74 3E
  can0  000   [8]  22 21 00 00 06 12 74 3E
  can0  000   [8]  22 2A 00 00 01 18 00 00
  can0  000   [8]  22 2B 00 00 01 18 00 00
  can0  000   [8]  22 06 00 00 00 C0 0A 42
  can0  000   [8]  22 07 00 00 00 C0 03 42
  can0  000   [8]  22 11 00 00 84 71 5A 42
  can0  000   [8]  22 12 00 00 12 13 C2 41
  can0  000   [8]  22 13 00 00 9A A8 59 42
  can0  000   [8]  22 14 00 00 26 BD C3 41
  can0  000   [8]  22 15 00 00 12 13 C2 41
  can0  000   [8]  22 16 00 00 3E 79 88 3E
  can0  000   [8]  22 17 00 00 23 E1 5A 42
  can0  000   [8]  22 18 00 00 06 12 74 3E
  can0  000   [8]  22 21 00 00 06 12 74 3E
  can0  000   [8]  22 2A 00 00 01 18 00 00
  can0  000   [8]  22 2B 00 00 01 18 00 00
  can0  000   [8]  22 06 00 00 00 80 0A 42
  can0  000   [8]  22 07 00 00 00 C0 03 42
  can0  000   [8]  22 11 00 00 84 71 5A 42
  can0  000   [8]  22 12 00 00 02 AE C2 41
  can0  000   [8]  22 13 00 00 F4 7B 59 42
  can0  000   [8]  22 14 00 00 53 A3 C3 41
  can0  000   [8]  22 15 00 00 02 AE C2 41
  can0  000   [8]  22 16 00 00 3E 79 88 3E
  can0  000   [8]  22 17 00 00 7D B4 5A 42
  can0  000   [8]  22 18 00 00 FC A9 71 3E
  can0  000   [8]  22 21 00 00 FC A9 71 3E
  can0  000   [8]  22 2A 00 00 01 18 00 00
  can0  000   [8]  22 2B 00 00 01 18 00 00
  can0  000   [8]  22 06 00 00 00 80 09 42
  can0  000   [8]  22 07 00 00 00 80 04 42
  can0  000   [8]  22 11 00 00 84 71 5A 42
  can0  000   [8]  22 12 00 00 63 08 C3 41
  can0  000   [8]  22 13 00 00 93 EB 59 42
  can0  000   [8]  22 14 00 00 0F CA C3 41
  can0  000   [8]  22 15 00 00 63 08 C3 41
  can0  000   [8]  22 16 00 00 39 45 87 3E
  can0  000   [8]  22 17 00 00 76 F7 5A 42
  can0  000   [8]  22 18 00 00 06 12 74 3E
  can0  000   [8]  22 21 00 00 06 12 74 3E
  can0  000   [8]  22 2A 00 00 01 18 00 00
  can0  000   [8]  22 2B 00 00 01 18 00 00
  can0  000   [8]  22 06 00 00 00 80 0A 42
  can0  000   [8]  22 07 00 00 00 C0 04 42
  can0  000   [8]  22 11 00 00 32 5B 5A 42
  can0  000   [8]  22 12 00 00 1F 2F C3 41
  can0  000   [8]  22 13 00 00 F4 7B 59 42
  can0  000   [8]  22 14 00 00 53 A3 C3 41
  can0  000   [8]  22 15 00 00 1F 2F C3 41
  can0  000   [8]  22 16 00 00 39 45 87 3E
  can0  000   [8]  22 17 00 00 D0 CA 5A 42
  can0  000   [8]  22 18 00 00 06 12 74 3E
  can0  000   [8]  22 21 00 00 06 12 74 3E
  can0  000   [8]  22 2A 00 00 01 18 00 00
  can0  000   [8]  22 2B 00 00 01 18 00 00
  can0  000   [8]  22 06 00 00 00 80 09 42
  can0  000   [8]  22 07 00 00 00 40 06 42
  can0  000   [8]  22 11 00 00 8C 2E 5A 42
  can0  000   [8]  22 12 00 00 BD D4 C2 41
  can0  000   [8]  22 13 00 00 4E 4F 59 42
  can0  000   [8]  22 14 00 00 3D B0 C3 41
  can0  000   [8]  22 15 00 00 BD D4 C2 41
  can0  000   [8]  22 16 00 00 42 AD 89 3E
  can0  000   [8]  22 17 00 00 D0 CA 5A 42
  can0  000   [8]  22 18 00 00 FC A9 71 3E
  can0  000   [8]  22 21 00 00 FC A9 71 3E
  can0  000   [8]  22 2A 00 00 01 18 00 00
  can0  000   [8]  22 2B 00 00 01 18 00 00
  can0  000   [8]  22 06 00 00 00 40 0A 42
  can0  000   [8]  22 07 00 00 00 00 05 42
  can0  000   [8]  22 11 00 00 84 71 5A 42
  can0  000   [8]  22 12 00 00 A7 E1 C2 41
  can0  000   [8]  22 13 00 00 ED BE 59 42
  can0  000   [8]  22 14 00 00 3D B0 C3 41
  can0  000   [8]  22 15 00 00 A7 E1 C2 41
  can0  000   [8]  22 16 00 00 3E 79 88 3E
  can0  000   [8]  22 17 00 00 D0 CA 5A 42
  can0  000   [8]  22 18 00 00 06 12 74 3E
  can0  000   [8]  22 21 00 00 06 12 74 3E
  can0  000   [8]  22 2A 00 00 01 18 00 00
  can0  000   [8]  22 2B 00 00 01 18 00 00
  can0  000   [8]  22 06 00 00 00 80 0B 42
  can0  000   [8]  22 07 00 00 00 40 05 42
  can0  000   [8]  22 11 00 00 8C 2E 5A 42
  can0  000   [8]  22 12 00 00 02 AE C2 41
  can0  000   [8]  22 13 00 00 47 92 59 42
  can0  000   [8]  22 14 00 00 F8 D6 C3 41
  can0  000   [8]  22 15 00 00 02 AE C2 41
  can0  000   [8]  22 16 00 00 3E 79 88 3E
  can0  000   [8]  22 17 00 00 D7 87 5A 42
  can0  000   [8]  22 18 00 00 06 12 74 3E
  can0  000   [8]  22 21 00 00 06 12 74 3E
  can0  000   [8]  22 2A 00 00 01 18 00 00
  can0  000   [8]  22 2B 00 00 01 18 00 00
  can0  000   [8]  22 06 00 00 00 80 0A 42
  can0  000   [8]  22 07 00 00 00 C0 04 42
  can0  000   [8]  22 11 00 00 D7 87 5A 42
  can0  000   [8]  22 12 00 00 EC BA C2 41
  can0  000   [8]  22 13 00 00 47 92 59 42
  can0  000   [8]  22 14 00 00 80 89 C3 41
  can0  000   [8]  22 15 00 00 EC BA C2 41
  can0  000   [8]  22 16 00 00 39 45 87 3E
  can0  000   [8]  22 17 00 00 76 F7 5A 42
  can0  000   [8]  22 18 00 00 06 12 74 3E
  can0  000   [8]  22 21 00 00 06 12 74 3E
  can0  000   [8]  22 2A 00 00 01 18 00 00
  can0  000   [8]  22 2B 00 00 01 18 00 00
  can0  000   [8]  22 06 00 00 00 00 09 42
  can0  000   [8]  22 07 00 00 00 80 04 42
  can0  000   [8]  22 11 00 00 D7 87 5A 42
  can0  000   [8]  22 12 00 00 EC BA C2 41
  can0  000   [8]  22 13 00 00 47 92 59 42
  can0  000   [8]  22 14 00 00 6A 96 C3 41
  can0  000   [8]  22 15 00 00 EC BA C2 41
  can0  000   [8]  22 16 00 00 39 45 87 3E
  can0  000   [8]  22 17 00 00 7D B4 5A 42
  can0  000   [8]  22 18 00 00 FC A9 71 3E
  can0  000   [8]  22 21 00 00 FC A9 71 3E
  can0  000   [8]  22 2A 00 00 01 18 00 00
  can0  000   [8]  22 2B 00 00 01 18 00 00
  can0  000   [8]  22 06 00 00 00 40 0B 42
  can0  000   [8]  22 07 00 00 00 C0 05 42
  can0  000   [8]  22 11 00 00 39 18 5A 42
  can0  000   [8]  22 12 00 00 A7 E1 C2 41
  can0  000   [8]  22 13 00 00 9A A8 59 42
  can0  000   [8]  22 14 00 00 97 7C C3 41
  can0  000   [8]  22 15 00 00 A7 E1 C2 41
  can0  000   [8]  22 16 00 00 39 45 87 3E
  can0  000   [8]  22 17 00 00 76 F7 5A 42
  can0  000   [8]  22 18 00 00 06 12 74 3E
  can0  000   [8]  22 21 00 00 06 12 74 3E
  can0  000   [8]  22 2A 00 00 01 18 00 00
  can0  000   [8]  22 2B 00 00 01 18 00 00
  can0  000   [8]  22 06 00 00 00 C0 0B 42
  can0  000   [8]  22 07 00 00 00 C0 05 42
  can0  000   [8]  22 11 00 00 32 5B 5A 42
  can0  000   [8]  22 12 00 00 4D 15 C3 41
  can0  000   [8]  22 13 00 00 A1 65 59 42
  can0  000   [8]  22 14 00 00 E1 E3 C3 41
  can0  000   [8]  22 15 00 00 4D 15 C3 41
  can0  000   [8]  22 16 00 00 3E 79 88 3E
  can0  000   [8]  22 17 00 00 2A 9E 5A 42
  can0  000   [8]  22 18 00 00 06 12 74 3E
  can0  000   [8]  22 21 00 00 06 12 74 3E
  can0  000   [8]  22 2A 00 00 01 18 00 00
  can0  000   [8]  22 2B 00 00 01 18 00 00
  can0  000   [8]  22 06 00 00 00 C0 0A 42
  can0  000   [8]  22 07 00 00 00 00 05 42
  can0  000   [8]  22 11 00 00 32 5B 5A 42
  can0  000   [8]  22 12 00 00 D5 C7 C2 41
  can0  000   [8]  22 13 00 00 40 D5 59 42
  can0  000   [8]  22 14 00 00 80 89 C3 41
  can0  000   [8]  22 15 00 00 D5 C7 C2 41
  can0  000   [8]  22 16 00 00 47 E1 8A 3E
  can0  000   [8]  22 17 00 00 D0 CA 5A 42
  can0  000   [8]  22 18 00 00 06 12 74 3E
  can0  000   [8]  22 21 00 00 06 12 74 3E
  can0  000   [8]  22 2A 00 00 01 18 00 00
  can0  000   [8]  22 2B 00 00 01 18 00 00
  can0  00A   [8]  00 06 00 00 00 00 00 00
  can0  000   [8]  0A 06 00 00 50 12 0E 42
  can0  000   [8]  22 06 00 00 00 80 0A 42
  can0  000   [8]  22 07 00 00 00 C0 04 42
  can0  000   [8]  22 11 00 00 2A 9E 5A 42
  can0  000   [8]  22 12 00 00 90 EE C2 41
  can0  000   [8]  22 13 00 00 F4 7B 59 42
  can0  000   [8]  22 14 00 00 E1 E3 C3 41
  can0  000   [8]  22 15 00 00 90 EE C2 41
  can0  000   [8]  22 16 00 00 39 45 87 3E
  can0  000   [8]  22 17 00 00 23 E1 5A 42
  can0  000   [8]  22 18 00 00 FC A9 71 3E
  can0  000   [8]  22 21 00 00 FC A9 71 3E
  can0  000   [8]  22 2A 00 00 01 18 00 00
  can0  000   [8]  22 2B 00 00 01 18 00 00
  can0  000   [8]  22 06 00 00 00 80 0B 42
  can0  000   [8]  22 07 00 00 00 C0 04 42
  can0  000   [8]  22 11 00 00 84 71 5A 42
  can0  000   [8]  22 12 00 00 02 AE C2 41
  can0  000   [8]  22 13 00 00 47 92 59 42
  can0  000   [8]  22 14 00 00 3D B0 C3 41
  can0  000   [8]  22 15 00 00 02 AE C2 41
  can0  000   [8]  22 16 00 00 3E 79 88 3E
  can0  000   [8]  22 17 00 00 2A 9E 5A 42
  can0  000   [8]  22 18 00 00 06 12 74 3E
  can0  000   [8]  22 21 00 00 06 12 74 3E
  can0  000   [8]  22 2A 00 00 01 18 00 00
  can0  000   [8]  22 2B 00 00 01 18 00 00
  can0  000   [8]  22 06 00 00 00 C0 0A 42
  can0  000   [8]  22 07 00 00 00 40 06 42
  can0  000   [8]  22 11 00 00 DF 44 5A 42
  can0  000   [8]  22 12 00 00 5C 7A C2 41
  can0  000   [8]  22 13 00 00 40 D5 59 42
  can0  000   [8]  22 14 00 00 87 17 C4 41
  can0  000   [8]  22 15 00 00 5C 7A C2 41
  can0  000   [8]  22 16 00 00 3E 79 88 3E
  can0  000   [8]  22 17 00 00 23 E1 5A 42
  can0  000   [8]  22 18 00 00 06 12 74 3E
  can0  000   [8]  22 21 00 00 06 12 74 3E
  can0  000   [8]  22 2A 00 00 01 18 00 00
  can0  000   [8]  22 2B 00 00 01 18 00 00
  can0  00A   [8]  00 08 00 00 00 00 00 00
  can0  000   [8]  0A 08 00 00 08 64 0F 42
  can0  000   [8]  22 06 00 00 00 00 0B 42
  can0  000   [8]  22 07 00 00 00 C0 05 42
  can0  000   [8]  22 11 00 00 DF 44 5A 42
  can0  000   [8]  22 12 00 00 63 08 C3 41
  can0  000   [8]  22 13 00 00 F4 7B 59 42
  can0  000   [8]  22 14 00 00 3D B0 C3 41
  can0  000   [8]  22 15 00 00 63 08 C3 41
  can0  000   [8]  22 16 00 00 2F DD 84 3E
  can0  000   [8]  22 17 00 00 7D B4 5A 42
  can0  000   [8]  22 18 00 00 06 12 74 3E
  can0  000   [8]  22 21 00 00 06 12 74 3E
  can0  000   [8]  22 2A 00 00 01 18 00 00
  can0  000   [8]  22 2B 00 00 01 18 00 00
  can0  00A   [8]  00 0A 00 00 00 00 00 00
  can0  000   [8]  0A 0A 00 00 10 58 FD 41
  can0  00A   [8]  00 0C 00 00 00 00 00 00
  can0  000   [8]  0A 0C 00 00 18 49 D1 41
  can0  00A   [8]  00 11 00 00 00 00 00 00
  can0  000   [8]  0A 11 00 00 00 00 00 00
  can0  00A   [8]  00 12 00 00 00 00 00 00
  can0  000   [8]  0A 12 00 00 00 00 00 00
  can0  00A   [8]  00 15 00 00 00 00 00 00
  can0  000   [8]  0A 15 00 00 00 00 FE 42
  can0  00A   [8]  00 16 00 00 00 00 00 00
  can0  000   [8]  0A 16 00 00 00 00 A0 40
  can0  00A   [8]  00 1B 00 00 00 00 00 00
  can0  000   [8]  0A 1B 00 00 00 00 00 00
  can0  00A   [8]  00 1C 00 00 00 00 00 00
  can0  000   [8]  0A 1C 00 00 00 00 80 3F
  can0  00A   [8]  00 07 00 00 00 00 00 00
  can0  000   [8]  0A 07 00 00 50 12 0E 42
  can0  00A   [8]  00 09 00 00 00 00 00 00
  can0  000   [8]  0A 09 00 00 E0 E2 0B 42
  can0  00A   [8]  00 0B 00 00 00 00 00 00
  can0  000   [8]  0A 0B 00 00 60 BD F1 41
  can0  000   [8]  22 06 00 00 00 40 0B 42
  can0  000   [8]  22 07 00 00 00 40 05 42
  can0  000   [8]  22 11 00 00 8C 2E 5A 42
  can0  000   [8]  22 12 00 00 D5 C7 C2 41
  can0  000   [8]  22 13 00 00 A1 65 59 42
  can0  000   [8]  22 14 00 00 0F CA C3 41
  can0  000   [8]  22 15 00 00 D5 C7 C2 41
  can0  000   [8]  22 16 00 00 3E 79 88 3E
  can0  00A   [8]  00 0D 00 00 00 00 00 00
  can0  000   [8]  22 17 00 00 D7 87 5A 42
  can0  000   [8]  22 18 00 00 FC A9 71 3E
  can0  000   [8]  22 21 00 00 FC A9 71 3E
  can0  000   [8]  22 2A 00 00 01 18 00 00
  can0  000   [8]  22 2B 00 00 01 18 00 00
  can0  000   [8]  0A 0D 00 00 90 FD D8 41
  can0  00A   [8]  00 13 00 00 00 00 00 00
  can0  000   [8]  0A 13 00 00 00 00 00 00
  can0  00A   [8]  00 14 00 00 00 00 00 00
  can0  000   [8]  0A 14 00 00 00 00 00 00
  can0  00A   [8]  00 17 00 00 00 00 00 00
  can0  000   [8]  0A 17 00 00 00 00 25 43
  can0  00A   [8]  00 18 00 00 00 00 00 00
  can0  000   [8]  0A 18 00 00 00 00 00 40
  can0  00A   [8]  00 1D 00 00 00 00 00 00
  can0  000   [8]  0A 1D 00 00 00 00 00 00
  can0  00A   [8]  00 1E 00 00 00 00 00 00
  can0  000   [8]  0A 1E 00 00 00 00 80 3F
  can0  00B   [8]  00 06 00 00 00 00 00 00
  can0  000   [8]  0B 06 00 00 78 73 0B 42
  can0  00B   [8]  00 08 00 00 00 00 00 00
  can0  000   [8]  0B 08 00 00 F0 D4 0F 42
  can0  00B   [8]  00 0A 00 00 00 00 00 00
  can0  000   [8]  0B 0A 00 00 28 95 0A 42
  can0  00B   [8]  00 0C 00 00 00 00 00 00
  can0  000   [8]  0B 0C 00 00 00 20 EE 41
  can0  00B   [8]  00 11 00 00 00 00 00 00
  can0  000   [8]  0B 11 00 00 00 00 00 00
  can0  00B   [8]  00 12 00 00 00 00 00 00
  can0  000   [8]  0B 12 00 00 00 00 00 00
  can0  00B   [8]  00 15 00 00 00 00 00 00
  can0  000   [8]  0B 15 00 00 00 00 F0 42
  can0  00B   [8]  00 16 00 00 00 00 00 00
  can0  000   [8]  0B 16 00 00 00 00 00 00
  can0  00B   [8]  00 1B 00 00 00 00 00 00
  can0  000   [8]  0B 1B 00 00 00 00 00 00
  can0  00B   [8]  00 1C 00 00 00 00 00 00
  can0  000   [8]  0B 1C 00 00 00 00 80 3F
  can0  00B   [8]  00 07 00 00 00 00 00 00
  can0  000   [8]  0B 07 00 00 08 64 0F 42
  can0  00B   [8]  00 09 00 00 00 00 00 00
  can0  000   [8]  0B 09 00 00 C8 28 11 42
  can0  00B   [8]  00 0B 00 00 00 00 00 00
  can0  000   [8]  0B 0B 00 00 40 82 FC 41
  can0  00B   [8]  00 0D 00 00 00 00 00 00
  can0  000   [8]  0B 0D 00 00 2C 49 21 42
  can0  00B   [8]  00 13 00 00 00 00 00 00
  can0  000   [8]  0B 13 00 00 00 00 00 00
  can0  00B   [8]  00 14 00 00 00 00 00 00
  can0  000   [8]  0B 14 00 00 00 00 00 00
  can0  00B   [8]  00 17 00 00 00 00 00 00
  can0  000   [8]  0B 17 00 00 00 00 12 43
  can0  00B   [8]  00 18 00 00 00 00 00 00
  can0  000   [8]  0B 18 00 00 00 00 00 00
  can0  00B   [8]  00 1D 00 00 00 00 00 00
  can0  000   [8]  0B 1D 00 00 00 00 00 00
  can0  000   [8]  22 06 00 00 00 40 0B 42
  can0  000   [8]  22 07 00 00 00 40 06 42
  can0  000   [8]  22 11 00 00 D7 87 5A 42
  can0  000   [8]  22 12 00 00 7A FB C2 41
  can0  000   [8]  22 13 00 00 47 92 59 42
  can0  000   [8]  22 14 00 00 CB F0 C3 41
  can0  000   [8]  22 15 00 00 7A FB C2 41
  can0  000   [8]  22 16 00 00 3E 79 88 3E
  can0  000   [8]  22 17 00 00 D0 CA 5A 42
  can0  000   [8]  22 18 00 00 FC A9 71 3E
  can0  000   [8]  22 21 00 00 FC A9 71 3E
  can0  000   [8]  22 2A 00 00 01 18 00 00
  can0  000   [8]  22 2B 00 00 01 18 00 00
  can0  00B   [8]  00 1E 00 00 00 00 00 00
  can0  000   [8]  0B 1E 00 00 00 00 80 3F
  can0  00C   [8]  00 06 00 00 00 00 00 00
  can0  000   [8]  0C 06 00 00 F0 D4 0F 42
  can0  00C   [8]  00 08 00 00 00 00 00 00
  can0  000   [8]  0C 08 00 00 68 52 0C 42
  can0  00C   [8]  00 0A 00 00 00 00 00 00
  can0  000   [8]  0C 0A 00 00 F0 DC F5 41
  can0  00C   [8]  00 0C 00 00 00 00 00 00
  can0  000   [8]  0C 0C 00 00 58 4C 27 42
  can0  00C   [8]  00 11 00 00 00 00 00 00
  can0  000   [8]  0C 11 00 00 00 00 00 00
  can0  00C   [8]  00 12 00 00 00 00 00 00
  can0  000   [8]  0C 12 00 00 00 00 00 00
  can0  00C   [8]  00 15 00 00 00 00 00 00
  can0  000   [8]  0C 15 00 00 00 00 03 43
  can0  00C   [8]  00 16 00 00 00 00 00 00
  can0  000   [8]  0C 16 00 00 00 00 00 00
  can0  00C   [8]  00 1B 00 00 00 00 00 00
  can0  000   [8]  0C 1B 00 00 00 00 00 00
  can0  00C   [8]  00 1C 00 00 00 00 00 00
  can0  000   [8]  0C 1C 00 00 00 00 80 3F
  can0  00C   [8]  00 07 00 00 00 00 00 00
  can0  000   [8]  0C 07 00 00 10 46 10 42
  can0  00C   [8]  00 09 00 00 00 00 00 00
  can0  000   [8]  0C 09 00 00 48 26 0A 42
  can0  00C   [8]  00 0B 00 00 00 00 00 00
  can0  000   [8]  0C 0B 00 00 B0 AC FB 41
  can0  00C   [8]  00 0D 00 00 00 00 00 00
  can0  000   [8]  0C 0D 00 00 88 2B E4 41
  can0  00C   [8]  00 13 00 00 00 00 00 00
  can0  000   [8]  0C 13 00 00 00 00 00 00
  can0  00C   [8]  00 14 00 00 00 00 00 00
  can0  000   [8]  0C 14 00 00 00 00 00 00
  can0  00C   [8]  00 17 00 00 00 00 00 00
  can0  000   [8]  0C 17 00 00 00 00 F6 42
  can0  00C   [8]  00 18 00 00 00 00 00 00
  can0  000   [8]  0C 18 00 00 00 00 00 00
  can0  00C   [8]  00 1D 00 00 00 00 00 00
  can0  000   [8]  0C 1D 00 00 00 00 00 00
  can0  00C   [8]  00 1E 00 00 00 00 00 00
  can0  000   [8]  0C 1E 00 00 00 00 80 3F
  can0  00D   [8]  00 06 00 00 00 00 00 00
  can0  000   [8]  0D 06 00 00 38 7E 12 42
  can0  00D   [8]  00 08 00 00 00 00 00 00
  can0  000   [8]  0D 08 00 00 40 04 0B 42
  can0  00D   [8]  00 0A 00 00 00 00 00 00
  can0  000   [8]  0D 0A 00 00 20 30 01 42
  can0  00D   [8]  00 0C 00 00 00 00 00 00
  can0  000   [8]  0D 0C 00 00 30 17 22 42
  can0  00D   [8]  00 11 00 00 00 00 00 00
  can0  000   [8]  22 06 00 00 00 40 0A 42
  can0  000   [8]  22 07 00 00 00 00 06 42
  can0  000   [8]  22 11 00 00 32 5B 5A 42
  can0  000   [8]  22 12 00 00 D5 C7 C2 41
  can0  000   [8]  22 13 00 00 9A A8 59 42
  can0  000   [8]  22 14 00 00 0F CA C3 41
  can0  000   [8]  22 15 00 00 D5 C7 C2 41
  can0  000   [8]  22 16 00 00 39 45 87 3E
  can0  000   [8]  22 17 00 00 7D B4 5A 42
  can0  000   [8]  22 18 00 00 06 12 74 3E
  can0  000   [8]  22 21 00 00 06 12 74 3E
  can0  000   [8]  22 2A 00 00 01 18 00 00
  can0  000   [8]  22 2B 00 00 01 18 00 00
  can0  000   [8]  0D 11 00 00 00 00 00 00
  can0  00D   [8]  00 12 00 00 00 00 00 00
  can0  000   [8]  0D 12 00 00 00 00 00 00
  can0  00D   [8]  00 15 00 00 00 00 00 00
  can0  000   [8]  0D 15 00 00 00 00 B0 42
  can0  00D   [8]  00 16 00 00 00 00 00 00
  can0  000   [8]  0D 16 00 00 00 00 00 00
  can0  00D   [8]  00 1B 00 00 00 00 00 00
  can0  000   [8]  0D 1B 00 00 00 00 00 00
  can0  00D   [8]  00 1C 00 00 00 00 00 00
  can0  000   [8]  0D 1C 00 00 00 00 80 3F
  can0  00D   [8]  00 07 00 00 00 00 00 00
  can0  000   [8]  0D 07 00 00 38 7E 12 42
  can0  00D   [8]  00 09 00 00 00 00 00 00
  can0  000   [8]  0D 09 00 00 50 B7 10 42
  can0  00D   [8]  00 0B 00 00 00 00 00 00
  can0  000   [8]  0D 0B 00 00 68 52 0C 42
  can0  00D   [8]  00 0D 00 00 00 00 00 00
  can0  000   [8]  0D 0D 00 00 6C 7B 1D 42
  can0  00D   [8]  00 13 00 00 00 00 00 00
  can0  000   [8]  0D 13 00 00 00 00 00 00
  can0  00D   [8]  00 14 00 00 00 00 00 00
  can0  000   [8]  0D 14 00 00 00 00 00 00
  can0  00D   [8]  00 17 00 00 00 00 00 00
  can0  000   [8]  0D 17 00 00 00 00 D0 42
  can0  00D   [8]  00 18 00 00 00 00 00 00
  can0  000   [8]  0D 18 00 00 00 00 00 00
  can0  00D   [8]  00 1D 00 00 00 00 00 00
  can0  000   [8]  0D 1D 00 00 00 00 00 00
  can0  00D   [8]  00 1E 00 00 00 00 00 00
  can0  000   [8]  0D 1E 00 00 00 00 80 3F
  can0  00E   [8]  00 06 00 00 00 00 00 00
  can0  000   [8]  0E 06 00 00 C8 62 13 42
  can0  00E   [8]  00 08 00 00 00 00 00 00
  can0  000   [8]  0E 08 00 00 B0 88 16 42
  can0  00E   [8]  00 0A 00 00 00 00 00 00
  can0  000   [8]  0E 0A 00 00 48 22 07 42
  can0  00E   [8]  00 0C 00 00 00 00 00 00
  can0  000   [8]  0E 0C 00 00 78 5C F6 41
  can0  00E   [8]  00 11 00 00 00 00 00 00
  can0  000   [8]  0E 11 00 00 00 00 00 00
  can0  00E   [8]  00 12 00 00 00 00 00 00
  can0  000   [8]  0E 12 00 00 00 00 00 00
  can0  00E   [8]  00 15 00 00 00 00 00 00
  can0  000   [8]  0E 15 00 00 00 00 18 43
  can0  00E   [8]  00 16 00 00 00 00 00 00
  can0  000   [8]  0E 16 00 00 00 00 00 00
  can0  00E   [8]  00 1B 00 00 00 00 00 00
  can0  000   [8]  0E 1B 00 00 00 00 00 00
  can0  00E   [8]  00 1C 00 00 00 00 00 00
  can0  000   [8]  0E 1C 00 00 00 00 80 3F
  can0  00E   [8]  00 07 00 00 00 00 00 00
  can0  000   [8]  0E 07 00 00 C8 62 13 42
  can0  000   [8]  22 06 00 00 00 80 0B 42
  can0  000   [8]  22 07 00 00 00 C0 05 42
  can0  000   [8]  22 11 00 00 84 71 5A 42
  can0  000   [8]  22 12 00 00 2F 94 C2 41
  can0  000   [8]  22 13 00 00 A1 65 59 42
  can0  000   [8]  22 14 00 00 3D B0 C3 41
  can0  000   [8]  22 15 00 00 2F 94 C2 41
  can0  000   [8]  22 16 00 00 39 45 87 3E
  can0  000   [8]  22 17 00 00 2A 9E 5A 42
  can0  000   [8]  22 18 00 00 06 12 74 3E
  can0  000   [8]  22 21 00 00 06 12 74 3E
  can0  000   [8]  22 2A 00 00 01 18 00 00
  can0  000   [8]  22 2B 00 00 01 18 00 00
  can0  00E   [8]  00 09 00 00 00 00 00 00
  can0  000   [8]  0E 09 00 00 C8 28 11 42
  can0  00E   [8]  00 0B 00 00 00 00 00 00
  can0  000   [8]  0E 0B 00 00 00 36 F4 41
  can0  00E   [8]  00 0D 00 00 00 00 00 00
  can0  000   [8]  0E 0D 00 00 60 AF 2D 42
  can0  00E   [8]  00 13 00 00 00 00 00 00
  can0  000   [8]  0E 13 00 00 00 00 00 00
  can0  00E   [8]  00 14 00 00 00 00 00 00
  can0  000   [8]  0E 14 00 00 00 00 00 00
  can0  00E   [8]  00 17 00 00 00 00 00 00
  can0  000   [8]  0E 17 00 00 00 00 1B 43
  can0  00E   [8]  00 18 00 00 00 00 00 00
  can0  000   [8]  0E 18 00 00 00 00 00 00
  can0  00E   [8]  00 1D 00 00 00 00 00 00
  can0  000   [8]  0E 1D 00 00 00 00 00 00
  can0  00E   [8]  00 1E 00 00 00 00 00 00
  can0  000   [8]  0E 1E 00 00 00 00 80 3F
  can0  00F   [8]  00 06 00 00 00 00 00 00
  can0  000   [8]  0F 06 00 00 C8 62 13 42
  can0  00F   [8]  00 08 00 00 00 00 00 00
  can0  000   [8]  0F 08 00 00 00 E5 17 42
  can0  00F   [8]  00 0A 00 00 00 00 00 00
  can0  000   [8]  0F 0A 00 00 F0 D4 0F 42
  can0  00F   [8]  00 0C 00 00 00 00 00 00
  can0  000   [8]  0F 0C 00 00 14 47 26 42
  can0  00F   [8]  00 11 00 00 00 00 00 00
  can0  000   [8]  0F 11 00 00 00 00 00 00
  can0  00F   [8]  00 12 00 00 00 00 00 00
  can0  000   [8]  0F 12 00 00 00 00 00 00
  can0  00F   [8]  00 15 00 00 00 00 00 00
  can0  000   [8]  0F 15 00 00 00 00 E0 42
  can0  00F   [8]  00 16 00 00 00 00 00 00
  can0  000   [8]  0F 16 00 00 00 00 60 41
  can0  00F   [8]  00 1B 00 00 00 00 00 00
  can0  000   [8]  0F 1B 00 00 00 00 00 00
  can0  00F   [8]  00 1C 00 00 00 00 00 00
  can0  000   [8]  0F 1C 00 00 00 00 80 3F
  can0  00F   [8]  00 07 00 00 00 00 00 00
  can0  000   [8]  0F 07 00 00 68 F0 12 42
  can0  00F   [8]  00 09 00 00 00 00 00 00
  can0  000   [8]  0F 09 00 00 50 B7 10 42
  can0  00F   [8]  00 0B 00 00 00 00 00 00
  can0  000   [8]  0F 0B 00 00 38 7E 12 42
  can0  00F   [8]  00 0D 00 00 00 00 00 00
  can0  000   [8]  0F 0D 00 00 F8 5C 1C 42
  can0  00F   [8]  00 13 00 00 00 00 00 00
  can0  000   [8]  0F 13 00 00 00 00 00 00
  can0  00F   [8]  00 14 00 00 00 00 00 00
  can0  000   [8]  0F 14 00 00 00 00 00 00
  can0  00F   [8]  00 17 00 00 00 00 00 00
  can0  000   [8]  0F 17 00 00 00 00 CA 42
  can0  000   [8]  22 06 00 00 00 00 0D 42
  can0  000   [8]  22 07 00 00 00 40 06 42
  can0  000   [8]  22 11 00 00 93 EB 59 42
  can0  000   [8]  22 12 00 00 46 87 C2 41
  can0  000   [8]  22 13 00 00 F4 7B 59 42
  can0  000   [8]  22 14 00 00 E1 E3 C3 41
  can0  000   [8]  22 15 00 00 46 87 C2 41
  can0  000   [8]  22 16 00 00 34 11 86 3E
  can0  000   [8]  22 17 00 00 7D B4 5A 42
  can0  000   [8]  22 18 00 00 06 12 74 3E
  can0  000   [8]  22 21 00 00 06 12 74 3E
  can0  000   [8]  22 2A 00 00 01 18 00 00
  can0  000   [8]  22 2B 00 00 01 18 00 00
  can0  00F   [8]  00 18 00 00 00 00 00 00
  can0  000   [8]  0F 18 00 00 00 00 00 00
  can0  00F   [8]  00 1D 00 00 00 00 00 00
  can0  000   [8]  0F 1D 00 00 00 00 00 00
  can0  00F   [8]  00 1E 00 00 00 00 00 00
  can0  000   [8]  0F 1E 00 00 00 00 80 3F
  can0  010   [8]  00 06 00 00 00 00 00 00
  can0  000   [8]  10 06 00 00 08 64 0F 42
  can0  010   [8]  00 08 00 00 00 00 00 00
  can0  000   [8]  10 08 00 00 78 73 0B 42
  can0  010   [8]  00 0A 00 00 00 00 00 00
